


                                __________________________________________
                               |                                          |
                               | NUMERICAL ELECTROMAGNETICS CODE (nec2++) |
                               | Translated to 'C++' in Double Precision  |
                               |        Version 1.5.4 [2014-12-06]        |
                               |__________________________________________|



                               ---------------- COMMENTS ----------------
                                forw: 90, 0 ; back: 0, 0
                               



                                -------- STRUCTURE SPECIFICATION --------
                                COORDINATES MUST BE INPUT IN
                                METERS OR BE SCALED TO METERS
                                BEFORE STRUCTURE INPUT IS ENDED
  WIRE                                                                                 SEG FIRST  LAST  TAG
   No:        X1         Y1         Z1         X2         Y2         Z2       RADIUS   No:   SEG   SEG  No:

     1      0.0000     0.0000     0.0000     0.0000     0.0000     0.0582     0.0004     7     1     7    1
     2      0.0625     0.0000     0.0000     0.0625     0.0000     0.0582     0.0004     7     8    14    2
     3      0.1250     0.0000     0.0000     0.1250     0.0000     0.0582     0.0004     7    15    21    3
     4      0.1875     0.0000     0.0000     0.1875     0.0000     0.0582     0.0004     7    22    28    4
     5      0.2500     0.0000     0.0000     0.2500     0.0000     0.0582     0.0004     7    29    35    5
     6      0.3125     0.0000     0.0000     0.3125     0.0000     0.0582     0.0004     7    36    42    6
     7      0.3750     0.0000     0.0000     0.3750     0.0000     0.0582     0.0004     7    43    49    7
     8      0.4375     0.0000     0.0000     0.4375     0.0000     0.0582     0.0004     7    50    56    8

     TOTAL SEGMENTS USED: 56   SEGMENTS IN A SYMMETRIC CELL: 56   SYMMETRY FLAG: 0


                               ---------- SEGMENTATION DATA ----------
                                        COORDINATES IN METERS
                            I+ AND I- INDICATE THE SEGMENTS BEFORE AND AFTER I

   SEG    COORDINATES OF SEGM CENTER     SEGM    ORIENTATION ANGLES    WIRE    CONNECTION DATA   TAG
   No:       X         Y         Z      LENGTH     ALPHA      BETA    RADIUS    I-     I    I+   NO:
     1    0.0000    0.0000    0.0042    0.0083   90.0000    0.0000    0.0004     0     1     2     1
     2    0.0000    0.0000    0.0125    0.0083   90.0000    0.0000    0.0004     1     2     3     1
     3    0.0000    0.0000    0.0208    0.0083   90.0000    0.0000    0.0004     2     3     4     1
     4    0.0000    0.0000    0.0291    0.0083   90.0000    0.0000    0.0004     3     4     5     1
     5    0.0000    0.0000    0.0374    0.0083   90.0000    0.0000    0.0004     4     5     6     1
     6    0.0000    0.0000    0.0457    0.0083   90.0000    0.0000    0.0004     5     6     7     1
     7    0.0000    0.0000    0.0540    0.0083   90.0000    0.0000    0.0004     6     7     0     1
     8    0.0625    0.0000    0.0042    0.0083   90.0000    0.0000    0.0004     0     8     9     2
     9    0.0625    0.0000    0.0125    0.0083   90.0000    0.0000    0.0004     8     9    10     2
    10    0.0625    0.0000    0.0208    0.0083   90.0000    0.0000    0.0004     9    10    11     2
    11    0.0625    0.0000    0.0291    0.0083   90.0000    0.0000    0.0004    10    11    12     2
    12    0.0625    0.0000    0.0374    0.0083   90.0000    0.0000    0.0004    11    12    13     2
    13    0.0625    0.0000    0.0457    0.0083   90.0000    0.0000    0.0004    12    13    14     2
    14    0.0625    0.0000    0.0540    0.0083   90.0000    0.0000    0.0004    13    14     0     2
    15    0.1250    0.0000    0.0042    0.0083   90.0000    0.0000    0.0004     0    15    16     3
    16    0.1250    0.0000    0.0125    0.0083   90.0000    0.0000    0.0004    15    16    17     3
    17    0.1250    0.0000    0.0208    0.0083   90.0000    0.0000    0.0004    16    17    18     3
    18    0.1250    0.0000    0.0291    0.0083   90.0000    0.0000    0.0004    17    18    19     3
    19    0.1250    0.0000    0.0374    0.0083   90.0000    0.0000    0.0004    18    19    20     3
    20    0.1250    0.0000    0.0457    0.0083   90.0000    0.0000    0.0004    19    20    21     3
    21    0.1250    0.0000    0.0540    0.0083   90.0000    0.0000    0.0004    20    21     0     3
    22    0.1875    0.0000    0.0042    0.0083   90.0000    0.0000    0.0004     0    22    23     4
    23    0.1875    0.0000    0.0125    0.0083   90.0000    0.0000    0.0004    22    23    24     4
    24    0.1875    0.0000    0.0208    0.0083   90.0000    0.0000    0.0004    23    24    25     4
    25    0.1875    0.0000    0.0291    0.0083   90.0000    0.0000    0.0004    24    25    26     4
    26    0.1875    0.0000    0.0374    0.0083   90.0000    0.0000    0.0004    25    26    27     4
    27    0.1875    0.0000    0.0457    0.0083   90.0000    0.0000    0.0004    26    27    28     4
    28    0.1875    0.0000    0.0540    0.0083   90.0000    0.0000    0.0004    27    28     0     4
    29    0.2500    0.0000    0.0042    0.0083   90.0000    0.0000    0.0004     0    29    30     5
    30    0.2500    0.0000    0.0125    0.0083   90.0000    0.0000    0.0004    29    30    31     5
    31    0.2500    0.0000    0.0208    0.0083   90.0000    0.0000    0.0004    30    31    32     5
    32    0.2500    0.0000    0.0291    0.0083   90.0000    0.0000    0.0004    31    32    33     5
    33    0.2500    0.0000    0.0374    0.0083   90.0000    0.0000    0.0004    32    33    34     5
    34    0.2500    0.0000    0.0457    0.0083   90.0000    0.0000    0.0004    33    34    35     5
    35    0.2500    0.0000    0.0540    0.0083   90.0000    0.0000    0.0004    34    35     0     5
    36    0.3125    0.0000    0.0042    0.0083   90.0000    0.0000    0.0004     0    36    37     6
    37    0.3125    0.0000    0.0125    0.0083   90.0000    0.0000    0.0004    36    37    38     6
    38    0.3125    0.0000    0.0208    0.0083   90.0000    0.0000    0.0004    37    38    39     6
    39    0.3125    0.0000    0.0291    0.0083   90.0000    0.0000    0.0004    38    39    40     6
    40    0.3125    0.0000    0.0374    0.0083   90.0000    0.0000    0.0004    39    40    41     6
    41    0.3125    0.0000    0.0457    0.0083   90.0000    0.0000    0.0004    40    41    42     6
    42    0.3125    0.0000    0.0540    0.0083   90.0000    0.0000    0.0004    41    42     0     6
    43    0.3750    0.0000    0.0042    0.0083   90.0000    0.0000    0.0004     0    43    44     7
    44    0.3750    0.0000    0.0125    0.0083   90.0000    0.0000    0.0004    43    44    45     7
    45    0.3750    0.0000    0.0208    0.0083   90.0000    0.0000    0.0004    44    45    46     7
    46    0.3750    0.0000    0.0291    0.0083   90.0000    0.0000    0.0004    45    46    47     7
    47    0.3750    0.0000    0.0374    0.0083   90.0000    0.0000    0.0004    46    47    48     7
    48    0.3750    0.0000    0.0457    0.0083   90.0000    0.0000    0.0004    47    48    49     7
    49    0.3750    0.0000    0.0540    0.0083   90.0000    0.0000    0.0004    48    49     0     7
    50    0.4375    0.0000    0.0042    0.0083   90.0000    0.0000    0.0004     0    50    51     8
    51    0.4375    0.0000    0.0125    0.0083   90.0000    0.0000    0.0004    50    51    52     8
    52    0.4375    0.0000    0.0208    0.0083   90.0000    0.0000    0.0004    51    52    53     8
    53    0.4375    0.0000    0.0291    0.0083   90.0000    0.0000    0.0004    52    53    54     8
    54    0.4375    0.0000    0.0374    0.0083   90.0000    0.0000    0.0004    53    54    55     8
    55    0.4375    0.0000    0.0457    0.0083   90.0000    0.0000    0.0004    54    55    56     8
    56    0.4375    0.0000    0.0540    0.0083   90.0000    0.0000    0.0004    55    56     0     8



*****  DATA CARD N0.   1 EK   0     0     0     0 0.00000E+000 0.00000E+000 0.00000E+000 0.00000E+000 0.00000E+000 0.00000E+000
*****  DATA CARD N0.   2 EX   0     1     4     0 4.52825E-001 0.00000E+000 0.00000E+000 0.00000E+000 0.00000E+000 0.00000E+000
*****  DATA CARD N0.   3 EX   0     2     4     0 1.26258E-001 0.00000E+000 0.00000E+000 0.00000E+000 0.00000E+000 0.00000E+000
*****  DATA CARD N0.   4 EX   0     3     4     0 3.70186E-001 0.00000E+000 0.00000E+000 0.00000E+000 0.00000E+000 0.00000E+000
*****  DATA CARD N0.   5 EX   0     4     4     0 7.73786E-001 0.00000E+000 0.00000E+000 0.00000E+000 0.00000E+000 0.00000E+000
*****  DATA CARD N0.   6 EX   0     5     4     0 5.72125E-001 0.00000E+000 0.00000E+000 0.00000E+000 0.00000E+000 0.00000E+000
*****  DATA CARD N0.   7 EX   0     6     4     0 8.32292E-001 0.00000E+000 0.00000E+000 0.00000E+000 0.00000E+000 0.00000E+000
*****  DATA CARD N0.   8 EX   0     7     4     0 2.15923E-001 0.00000E+000 0.00000E+000 0.00000E+000 0.00000E+000 0.00000E+000
*****  DATA CARD N0.   9 EX   0     8     4     0 5.67619E-001 0.00000E+000 0.00000E+000 0.00000E+000 0.00000E+000 0.00000E+000
*****  DATA CARD N0.  10 GN  -1     0     0     0 0.00000E+000 0.00000E+000 0.00000E+000 0.00000E+000 0.00000E+000 0.00000E+000
*****  DATA CARD N0.  11 FR   0     1     0     0 2.40000E+003 0.00000E+000 0.00000E+000 0.00000E+000 0.00000E+000 0.00000E+000
*****  DATA CARD N0.  12 RP   0     1   361  1000 9.00000E+001 0.00000E+000 0.00000E+000 1.00000E+000 0.00000E+000 0.00000E+000


                               --------- FREQUENCY --------
                               FREQUENCY= 2.4000E+003 MHZ
                               WAVELENGTH=1.2491E-001 METERS


                        APPROXIMATE INTEGRATION EMPLOYED FOR SEGMENTS
                        THAT ARE MORE THAN 1.000 WAVELENGTHS APART
                        THE EXTENDED THIN WIRE KERNEL WILL BE USED



                          ------ STRUCTURE IMPEDANCE LOADING ------
                                 THIS STRUCTURE IS NOT LOADED



                            -------- ANTENNA ENVIRONMENT --------
                            FREE SPACE



                             ---------- MATRIX TIMING ----------
                               FILL= 9 msec  FACTOR: 0 msec


                      ----- ANTENNA INPUT PARAMETERS -----
  TAG   SEG       VOLTAGE (VOLTS)         CURRENT (AMPS)         IMPEDANCE (OHMS)        ADMITTANCE (MHOS)     POWER
  NO.   NO.     REAL      IMAGINARY     REAL      IMAGINARY     REAL      IMAGINARY    REAL       IMAGINARY   (WATTS)
   1     4  4.5283E-01  0.0000E+00  6.2162E-03  1.3904E-03  6.9375E+01 -1.5517E+01  1.3728E-02  3.0705E-03  1.4074E-03
   2    11  1.2626E-01  0.0000E+00  1.8058E-03  3.1714E-03  1.7118E+01 -3.0064E+01  1.4302E-02  2.5119E-02  1.1400E-04
   3    18  3.7019E-01  0.0000E+00  5.2738E-03  3.7164E-03  4.6902E+01 -3.3051E+01  1.4246E-02  1.0039E-02  9.7615E-04
   4    25  7.7379E-01  0.0000E+00  9.8272E-03  5.6503E-03  5.9176E+01 -3.4024E+01  1.2700E-02  7.3022E-03  3.8021E-03
   5    32  5.7212E-01  0.0000E+00  9.1918E-03  7.3012E-03  3.8164E+01 -3.0314E+01  1.6066E-02  1.2762E-02  2.6294E-03
   6    39  8.3229E-01  0.0000E+00  9.7598E-03  4.9075E-03  6.8068E+01 -3.4226E+01  1.1726E-02  5.8963E-03  4.0615E-03
   7    46  2.1592E-01  0.0000E+00  4.6651E-03  5.6020E-03  1.8954E+01 -2.2760E+01  2.1605E-02  2.5944E-02  5.0365E-04
   8    53  5.6762E-01  0.0000E+00  6.5869E-03  1.5756E-03  8.1510E+01 -1.9497E+01  1.1604E-02  2.7758E-03  1.8694E-03







                        ----- CURRENTS AND LOCATION -----
                            DISTANCES IN WAVELENGTHS 

   SEG  TAG    COORDINATES OF SEGM CENTER     SEGM    ------------- CURRENT (AMPS) -------------
   No:  No:       X         Y         Z      LENGTH     REAL      IMAGINARY    MAGN        PHASE
     1    1    0.0000    0.0000    0.0333   0.06655  1.7643E-03  1.5860E-04  1.7715E-03    5.137 
     2    1    0.0000    0.0000    0.0998   0.06655  4.1796E-03  5.1252E-04  4.2109E-03    6.991 
     3    1    0.0000    0.0000    0.1664   0.06655  5.6903E-03  9.6196E-04  5.7710E-03    9.595 
     4    1    0.0000    0.0000    0.2329   0.06655  6.2162E-03  1.3904E-03  6.3698E-03   12.608 
     5    1    0.0000    0.0000    0.2995   0.06655  5.6903E-03  9.6196E-04  5.7710E-03    9.595 
     6    1    0.0000    0.0000    0.3660   0.06655  4.1796E-03  5.1252E-04  4.2109E-03    6.991 
     7    1    0.0000    0.0000    0.4326   0.06655  1.7643E-03  1.5860E-04  1.7715E-03    5.137 
     8    2    0.5003    0.0000    0.0333   0.06655  5.1725E-04  8.3685E-04  9.8380E-04   58.280 
     9    2    0.5003    0.0000    0.0998   0.06655  1.2191E-03  2.0173E-03  2.3570E-03   58.853 
    10    2    0.5003    0.0000    0.1664   0.06655  1.6547E-03  2.8173E-03  3.2673E-03   59.573 
    11    2    0.5003    0.0000    0.2329   0.06655  1.8058E-03  3.1714E-03  3.6495E-03   60.343 
    12    2    0.5003    0.0000    0.2995   0.06655  1.6547E-03  2.8173E-03  3.2673E-03   59.573 
    13    2    0.5003    0.0000    0.3660   0.06655  1.2191E-03  2.0173E-03  2.3570E-03   58.853 
    14    2    0.5003    0.0000    0.4326   0.06655  5.1725E-04  8.3685E-04  9.8380E-04   58.280 
    15    3    1.0007    0.0000    0.0333   0.06655  1.5012E-03  8.6558E-04  1.7329E-03   29.967 
    16    3    1.0007    0.0000    0.0998   0.06655  3.5506E-03  2.1574E-03  4.1546E-03   31.284 
    17    3    1.0007    0.0000    0.1664   0.06655  4.8292E-03  3.1492E-03  5.7653E-03   33.109 
    18    3    1.0007    0.0000    0.2329   0.06655  5.2738E-03  3.7164E-03  6.4517E-03   35.172 
    19    3    1.0007    0.0000    0.2995   0.06655  4.8292E-03  3.1492E-03  5.7653E-03   33.109 
    20    3    1.0007    0.0000    0.3660   0.06655  3.5506E-03  2.1574E-03  4.1546E-03   31.284 
    21    3    1.0007    0.0000    0.4326   0.06655  1.5012E-03  8.6558E-04  1.7329E-03   29.967 
    22    4    1.5010    0.0000    0.0333   0.06655  2.7937E-03  1.2035E-03  3.0419E-03   23.306 
    23    4    1.5010    0.0000    0.0998   0.06655  6.6122E-03  3.0807E-03  7.2947E-03   24.981 
    24    4    1.5010    0.0000    0.1664   0.06655  8.9974E-03  4.6423E-03  1.0124E-02   27.292 
    25    4    1.5010    0.0000    0.2329   0.06655  9.8272E-03  5.6503E-03  1.1336E-02   29.898 
    26    4    1.5010    0.0000    0.2995   0.06655  8.9974E-03  4.6423E-03  1.0124E-02   27.292 
    27    4    1.5010    0.0000    0.3660   0.06655  6.6122E-03  3.0807E-03  7.2947E-03   24.981 
    28    4    1.5010    0.0000    0.4326   0.06655  2.7937E-03  1.2035E-03  3.0419E-03   23.306 
    29    5    2.0014    0.0000    0.0333   0.06655  2.6165E-03  1.7814E-03  3.1654E-03   34.247 
    30    5    2.0014    0.0000    0.0998   0.06655  6.1883E-03  4.3830E-03  7.5833E-03   35.309 
    31    5    2.0014    0.0000    0.1664   0.06655  8.4168E-03  6.2933E-03  1.0509E-02   36.786 
    32    5    2.0014    0.0000    0.2329   0.06655  9.1918E-03  7.3012E-03  1.1739E-02   38.461 
    33    5    2.0014    0.0000    0.2995   0.06655  8.4168E-03  6.2933E-03  1.0509E-02   36.786 
    34    5    2.0014    0.0000    0.3660   0.06655  6.1883E-03  4.3830E-03  7.5833E-03   35.309 
    35    5    2.0014    0.0000    0.4326   0.06655  2.6165E-03  1.7814E-03  3.1654E-03   34.247 
    36    6    2.5017    0.0000    0.0333   0.06655  2.7741E-03  9.6102E-04  2.9358E-03   19.108 
    37    6    2.5017    0.0000    0.0998   0.06655  6.5663E-03  2.5255E-03  7.0353E-03   21.037 
    38    6    2.5017    0.0000    0.1664   0.06655  8.9355E-03  3.9217E-03  9.7582E-03   23.696 
    39    6    2.5017    0.0000    0.2329   0.06655  9.7598E-03  4.9075E-03  1.0924E-02   26.694 
    40    6    2.5017    0.0000    0.2995   0.06655  8.9355E-03  3.9217E-03  9.7582E-03   23.696 
    41    6    2.5017    0.0000    0.3660   0.06655  6.5663E-03  2.5255E-03  7.0353E-03   21.037 
    42    6    2.5017    0.0000    0.4326   0.06655  2.7741E-03  9.6102E-04  2.9358E-03   19.108 
    43    7    3.0020    0.0000    0.0333   0.06655  1.3308E-03  1.4839E-03  1.9932E-03   48.113 
    44    7    3.0020    0.0000    0.0998   0.06655  3.1437E-03  3.5718E-03  4.7582E-03   48.647 
    45    7    3.0020    0.0000    0.1664   0.06655  4.2728E-03  4.9820E-03  6.5633E-03   49.382 
    46    7    3.0020    0.0000    0.2329   0.06655  4.6651E-03  5.6020E-03  7.2901E-03   50.214 
    47    7    3.0020    0.0000    0.2995   0.06655  4.2728E-03  4.9820E-03  6.5633E-03   49.382 
    48    7    3.0020    0.0000    0.3660   0.06655  3.1437E-03  3.5718E-03  4.7582E-03   48.647 
    49    7    3.0020    0.0000    0.4326   0.06655  1.3308E-03  1.4839E-03  1.9932E-03   48.113 
    50    8    3.5024    0.0000    0.0333   0.06655  1.8707E-03  1.4976E-04  1.8767E-03    4.577 
    51    8    3.5024    0.0000    0.0998   0.06655  4.4301E-03  5.2840E-04  4.4615E-03    6.802 
    52    8    3.5024    0.0000    0.1664   0.06655  6.0301E-03  1.0522E-03  6.1212E-03    9.898 
    53    8    3.5024    0.0000    0.2329   0.06655  6.5869E-03  1.5756E-03  6.7728E-03   13.452 
    54    8    3.5024    0.0000    0.2995   0.06655  6.0301E-03  1.0522E-03  6.1212E-03    9.898 
    55    8    3.5024    0.0000    0.3660   0.06655  4.4301E-03  5.2840E-04  4.4615E-03    6.802 
    56    8    3.5024    0.0000    0.4326   0.06655  1.8707E-03  1.4976E-04  1.8767E-03    4.577 






                               ---------- POWER BUDGET ---------
                               INPUT POWER   = 1.5364E-002 Watts
                               RADIATED POWER= 1.5364E-002 Watts
                               STRUCTURE LOSS= 0.0000E+000 Watts
                               NETWORK LOSS  = 0.0000E+000 Watts
                               EFFICIENCY    =  100.00 Percent


                         ----- RADIATION PATTERNS -----
 ---- ANGLES -----     ----- POWER GAINS -----       ---- POLARIZATION ----   ---- E(THETA) ----    ----- E(PHI) ------
  THETA      PHI       VERTC   HORIZ   TOTAL       AXIAL      TILT  SENSE   MAGNITUDE    PHASE    MAGNITUDE     PHASE
 DEGREES   DEGREES        DB       DB       DB       RATIO   DEGREES            VOLTS/M   DEGREES     VOLTS/M   DEGREES
   90.00      0.00    -11.82  -999.99   -11.82      0.0000      0.00 LINEAR  2.4622E-01   -140.33  0.0000E+00      0.00
   90.00      1.00    -11.79  -999.99   -11.79      0.0000      0.00 LINEAR  2.4698E-01   -140.64  0.0000E+00      0.00
   90.00      2.00    -11.71  -999.99   -11.71      0.0000      0.00 LINEAR  2.4928E-01   -141.57  0.0000E+00      0.00
   90.00      3.00    -11.58  -999.99   -11.58      0.0000      0.00 LINEAR  2.5317E-01   -143.09  0.0000E+00      0.00
   90.00      4.00    -11.39  -999.99   -11.39      0.0000      0.00 LINEAR  2.5875E-01   -145.16  0.0000E+00      0.00
   90.00      5.00    -11.14  -999.99   -11.14      0.0000      0.00 LINEAR  2.6612E-01   -147.73  0.0000E+00      0.00
   90.00      6.00    -10.84  -999.99   -10.84      0.0000      0.00 LINEAR  2.7540E-01   -150.74  0.0000E+00      0.00
   90.00      7.00    -10.49  -999.99   -10.49      0.0000      0.00 LINEAR  2.8672E-01   -154.12  0.0000E+00      0.00
   90.00      8.00    -10.10  -999.99   -10.10      0.0000      0.00 LINEAR  3.0018E-01   -157.81  0.0000E+00      0.00
   90.00      9.00     -9.65  -999.99    -9.65      0.0000      0.00 LINEAR  3.1584E-01   -161.74  0.0000E+00      0.00
   90.00     10.00     -9.18  -999.99    -9.18      0.0000      0.00 LINEAR  3.3375E-01   -165.86  0.0000E+00      0.00
   90.00     11.00     -8.67  -999.99    -8.67      0.0000      0.00 LINEAR  3.5391E-01   -170.12  0.0000E+00      0.00
