


                                __________________________________________
                               |                                          |
                               | NUMERICAL ELECTROMAGNETICS CODE (nec2++) |
                               | Translated to 'C++' in Double Precision  |
                               |        Version 1.5.4 [2014-12-06]        |
                               |__________________________________________|



                               ---------------- COMMENTS ----------------
                                forw: 90, 0 ; back: 0, 0
                               



                                -------- STRUCTURE SPECIFICATION --------
                                COORDINATES MUST BE INPUT IN
                                METERS OR BE SCALED TO METERS
                                BEFORE STRUCTURE INPUT IS ENDED
  WIRE                                                                                 SEG FIRST  LAST  TAG
   No:        X1         Y1         Z1         X2         Y2         Z2       RADIUS   No:   SEG   SEG  No:

     1      0.0000     0.0000     0.0000     0.0000     0.0000     0.0582     0.0004     7     1     7    1
     2      0.0625     0.0000     0.0000     0.0625     0.0000     0.0582     0.0004     7     8    14    2
     3      0.1250     0.0000     0.0000     0.1250     0.0000     0.0582     0.0004     7    15    21    3
     4      0.1875     0.0000     0.0000     0.1875     0.0000     0.0582     0.0004     7    22    28    4
     5      0.2500     0.0000     0.0000     0.2500     0.0000     0.0582     0.0004     7    29    35    5
     6      0.3125     0.0000     0.0000     0.3125     0.0000     0.0582     0.0004     7    36    42    6
     7      0.3750     0.0000     0.0000     0.3750     0.0000     0.0582     0.0004     7    43    49    7
     8      0.4375     0.0000     0.0000     0.4375     0.0000     0.0582     0.0004     7    50    56    8

     TOTAL SEGMENTS USED: 56   SEGMENTS IN A SYMMETRIC CELL: 56   SYMMETRY FLAG: 0


                               ---------- SEGMENTATION DATA ----------
                                        COORDINATES IN METERS
                            I+ AND I- INDICATE THE SEGMENTS BEFORE AND AFTER I

   SEG    COORDINATES OF SEGM CENTER     SEGM    ORIENTATION ANGLES    WIRE    CONNECTION DATA   TAG
   No:       X         Y         Z      LENGTH     ALPHA      BETA    RADIUS    I-     I    I+   NO:
     1    0.0000    0.0000    0.0042    0.0083   90.0000    0.0000    0.0004     0     1     2     1
     2    0.0000    0.0000    0.0125    0.0083   90.0000    0.0000    0.0004     1     2     3     1
     3    0.0000    0.0000    0.0208    0.0083   90.0000    0.0000    0.0004     2     3     4     1
     4    0.0000    0.0000    0.0291    0.0083   90.0000    0.0000    0.0004     3     4     5     1
     5    0.0000    0.0000    0.0374    0.0083   90.0000    0.0000    0.0004     4     5     6     1
     6    0.0000    0.0000    0.0457    0.0083   90.0000    0.0000    0.0004     5     6     7     1
     7    0.0000    0.0000    0.0540    0.0083   90.0000    0.0000    0.0004     6     7     0     1
     8    0.0625    0.0000    0.0042    0.0083   90.0000    0.0000    0.0004     0     8     9     2
     9    0.0625    0.0000    0.0125    0.0083   90.0000    0.0000    0.0004     8     9    10     2
    10    0.0625    0.0000    0.0208    0.0083   90.0000    0.0000    0.0004     9    10    11     2
    11    0.0625    0.0000    0.0291    0.0083   90.0000    0.0000    0.0004    10    11    12     2
    12    0.0625    0.0000    0.0374    0.0083   90.0000    0.0000    0.0004    11    12    13     2
    13    0.0625    0.0000    0.0457    0.0083   90.0000    0.0000    0.0004    12    13    14     2
    14    0.0625    0.0000    0.0540    0.0083   90.0000    0.0000    0.0004    13    14     0     2
    15    0.1250    0.0000    0.0042    0.0083   90.0000    0.0000    0.0004     0    15    16     3
    16    0.1250    0.0000    0.0125    0.0083   90.0000    0.0000    0.0004    15    16    17     3
    17    0.1250    0.0000    0.0208    0.0083   90.0000    0.0000    0.0004    16    17    18     3
    18    0.1250    0.0000    0.0291    0.0083   90.0000    0.0000    0.0004    17    18    19     3
    19    0.1250    0.0000    0.0374    0.0083   90.0000    0.0000    0.0004    18    19    20     3
    20    0.1250    0.0000    0.0457    0.0083   90.0000    0.0000    0.0004    19    20    21     3
    21    0.1250    0.0000    0.0540    0.0083   90.0000    0.0000    0.0004    20    21     0     3
    22    0.1875    0.0000    0.0042    0.0083   90.0000    0.0000    0.0004     0    22    23     4
    23    0.1875    0.0000    0.0125    0.0083   90.0000    0.0000    0.0004    22    23    24     4
    24    0.1875    0.0000    0.0208    0.0083   90.0000    0.0000    0.0004    23    24    25     4
    25    0.1875    0.0000    0.0291    0.0083   90.0000    0.0000    0.0004    24    25    26     4
    26    0.1875    0.0000    0.0374    0.0083   90.0000    0.0000    0.0004    25    26    27     4
    27    0.1875    0.0000    0.0457    0.0083   90.0000    0.0000    0.0004    26    27    28     4
    28    0.1875    0.0000    0.0540    0.0083   90.0000    0.0000    0.0004    27    28     0     4
    29    0.2500    0.0000    0.0042    0.0083   90.0000    0.0000    0.0004     0    29    30     5
    30    0.2500    0.0000    0.0125    0.0083   90.0000    0.0000    0.0004    29    30    31     5
    31    0.2500    0.0000    0.0208    0.0083   90.0000    0.0000    0.0004    30    31    32     5
    32    0.2500    0.0000    0.0291    0.0083   90.0000    0.0000    0.0004    31    32    33     5
    33    0.2500    0.0000    0.0374    0.0083   90.0000    0.0000    0.0004    32    33    34     5
    34    0.2500    0.0000    0.0457    0.0083   90.0000    0.0000    0.0004    33    34    35     5
    35    0.2500    0.0000    0.0540    0.0083   90.0000    0.0000    0.0004    34    35     0     5
    36    0.3125    0.0000    0.0042    0.0083   90.0000    0.0000    0.0004     0    36    37     6
    37    0.3125    0.0000    0.0125    0.0083   90.0000    0.0000    0.0004    36    37    38     6
    38    0.3125    0.0000    0.0208    0.0083   90.0000    0.0000    0.0004    37    38    39     6
    39    0.3125    0.0000    0.0291    0.0083   90.0000    0.0000    0.0004    38    39    40     6
    40    0.3125    0.0000    0.0374    0.0083   90.0000    0.0000    0.0004    39    40    41     6
    41    0.3125    0.0000    0.0457    0.0083   90.0000    0.0000    0.0004    40    41    42     6
    42    0.3125    0.0000    0.0540    0.0083   90.0000    0.0000    0.0004    41    42     0     6
    43    0.3750    0.0000    0.0042    0.0083   90.0000    0.0000    0.0004     0    43    44     7
    44    0.3750    0.0000    0.0125    0.0083   90.0000    0.0000    0.0004    43    44    45     7
    45    0.3750    0.0000    0.0208    0.0083   90.0000    0.0000    0.0004    44    45    46     7
    46    0.3750    0.0000    0.0291    0.0083   90.0000    0.0000    0.0004    45    46    47     7
    47    0.3750    0.0000    0.0374    0.0083   90.0000    0.0000    0.0004    46    47    48     7
    48    0.3750    0.0000    0.0457    0.0083   90.0000    0.0000    0.0004    47    48    49     7
    49    0.3750    0.0000    0.0540    0.0083   90.0000    0.0000    0.0004    48    49     0     7
    50    0.4375    0.0000    0.0042    0.0083   90.0000    0.0000    0.0004     0    50    51     8
    51    0.4375    0.0000    0.0125    0.0083   90.0000    0.0000    0.0004    50    51    52     8
    52    0.4375    0.0000    0.0208    0.0083   90.0000    0.0000    0.0004    51    52    53     8
    53    0.4375    0.0000    0.0291    0.0083   90.0000    0.0000    0.0004    52    53    54     8
    54    0.4375    0.0000    0.0374    0.0083   90.0000    0.0000    0.0004    53    54    55     8
    55    0.4375    0.0000    0.0457    0.0083   90.0000    0.0000    0.0004    54    55    56     8
    56    0.4375    0.0000    0.0540    0.0083   90.0000    0.0000    0.0004    55    56     0     8



*****  DATA CARD N0.   1 EK   0     0     0     0 0.00000E+000 0.00000E+000 0.00000E+000 0.00000E+000 0.00000E+000 0.00000E+000
*****  DATA CARD N0.   2 EX   0     1     4     0 9.68954E-001 0.00000E+000 0.00000E+000 0.00000E+000 0.00000E+000 0.00000E+000
*****  DATA CARD N0.   3 EX   0     2     4     0 5.22079E-001 0.00000E+000 0.00000E+000 0.00000E+000 0.00000E+000 0.00000E+000
*****  DATA CARD N0.   4 EX   0     3     4     0 9.66409E-001 0.00000E+000 0.00000E+000 0.00000E+000 0.00000E+000 0.00000E+000
*****  DATA CARD N0.   5 EX   0     4     4     0 4.55793E-001 0.00000E+000 0.00000E+000 0.00000E+000 0.00000E+000 0.00000E+000
*****  DATA CARD N0.   6 EX   0     5     4     0 3.69269E-002 0.00000E+000 0.00000E+000 0.00000E+000 0.00000E+000 0.00000E+000
*****  DATA CARD N0.   7 EX   0     6     4     0 6.17500E-001 0.00000E+000 0.00000E+000 0.00000E+000 0.00000E+000 0.00000E+000
*****  DATA CARD N0.   8 EX   0     7     4     0 1.25875E-001 0.00000E+000 0.00000E+000 0.00000E+000 0.00000E+000 0.00000E+000
*****  DATA CARD N0.   9 EX   0     8     4     0 4.25614E-001 0.00000E+000 0.00000E+000 0.00000E+000 0.00000E+000 0.00000E+000
*****  DATA CARD N0.  10 GN  -1     0     0     0 0.00000E+000 0.00000E+000 0.00000E+000 0.00000E+000 0.00000E+000 0.00000E+000
*****  DATA CARD N0.  11 FR   0     1     0     0 2.40000E+003 0.00000E+000 0.00000E+000 0.00000E+000 0.00000E+000 0.00000E+000
*****  DATA CARD N0.  12 RP   0     1   361  1000 9.00000E+001 0.00000E+000 0.00000E+000 1.00000E+000 0.00000E+000 0.00000E+000


                               --------- FREQUENCY --------
                               FREQUENCY= 2.4000E+003 MHZ
                               WAVELENGTH=1.2491E-001 METERS


                        APPROXIMATE INTEGRATION EMPLOYED FOR SEGMENTS
                        THAT ARE MORE THAN 1.000 WAVELENGTHS APART
                        THE EXTENDED THIN WIRE KERNEL WILL BE USED



                          ------ STRUCTURE IMPEDANCE LOADING ------
                                 THIS STRUCTURE IS NOT LOADED



                            -------- ANTENNA ENVIRONMENT --------
                            FREE SPACE



                             ---------- MATRIX TIMING ----------
                               FILL= 0 msec  FACTOR: 0 msec


                      ----- ANTENNA INPUT PARAMETERS -----
  TAG   SEG       VOLTAGE (VOLTS)         CURRENT (AMPS)         IMPEDANCE (OHMS)        ADMITTANCE (MHOS)     POWER
  NO.   NO.     REAL      IMAGINARY     REAL      IMAGINARY     REAL      IMAGINARY    REAL       IMAGINARY   (WATTS)
   1     4  9.6895E-01  0.0000E+00  1.2457E-02  3.6055E-03  7.1770E+01 -2.0773E+01  1.2856E-02  3.7210E-03  6.0352E-03
   2    11  5.2208E-01  0.0000E+00  8.7094E-03  8.8791E-03  2.9394E+01 -2.9967E+01  1.6682E-02  1.7007E-02  2.2735E-03
   3    18  9.6641E-01  0.0000E+00  1.2335E-02  6.0995E-03  6.2952E+01 -3.1128E+01  1.2764E-02  6.3116E-03  5.9605E-03
   4    25  4.5579E-01  0.0000E+00  6.3327E-03  4.6242E-03  4.6944E+01 -3.4279E+01  1.3894E-02  1.0145E-02  1.4432E-03
   5    32  3.6927E-02  0.0000E+00  1.0070E-03  3.1914E-03  3.3203E+00 -1.0523E+01  2.7269E-02  8.6425E-02  1.8592E-05
   6    39  6.1750E-01  0.0000E+00  7.2690E-03  2.3073E-03  7.7174E+01 -2.4496E+01  1.1772E-02  3.7365E-03  2.2443E-03
   7    46  1.2588E-01  0.0000E+00  3.1294E-03  4.2945E-03  1.3951E+01 -1.9145E+01  2.4861E-02  3.4117E-02  1.9696E-04
   8    53  4.2561E-01  0.0000E+00  4.9150E-03  1.0258E-03  8.2981E+01 -1.7319E+01  1.1548E-02  2.4102E-03  1.0459E-03







                        ----- CURRENTS AND LOCATION -----
                            DISTANCES IN WAVELENGTHS 

   SEG  TAG    COORDINATES OF SEGM CENTER     SEGM    ------------- CURRENT (AMPS) -------------
   No:  No:       X         Y         Z      LENGTH     REAL      IMAGINARY    MAGN        PHASE
     1    1    0.0000    0.0000    0.0333   0.06655  3.5381E-03  5.1794E-04  3.5758E-03    8.328 
     2    1    0.0000    0.0000    0.0998   0.06655  8.3783E-03  1.5202E-03  8.5151E-03   10.284 
     3    1    0.0000    0.0000    0.1664   0.06655  1.1404E-02  2.6353E-03  1.1705E-02   13.012 
     4    1    0.0000    0.0000    0.2329   0.06655  1.2457E-02  3.6055E-03  1.2968E-02   16.142 
     5    1    0.0000    0.0000    0.2995   0.06655  1.1404E-02  2.6353E-03  1.1705E-02   13.012 
     6    1    0.0000    0.0000    0.3660   0.06655  8.3783E-03  1.5202E-03  8.5151E-03   10.284 
     7    1    0.0000    0.0000    0.4326   0.06655  3.5381E-03  5.1794E-04  3.5758E-03    8.328 
     8    2    0.5003    0.0000    0.0333   0.06655  2.4814E-03  2.2561E-03  3.3537E-03   42.278 
     9    2    0.5003    0.0000    0.0998   0.06655  5.8658E-03  5.4915E-03  8.0351E-03   43.112 
    10    2    0.5003    0.0000    0.1664   0.06655  7.9758E-03  7.7723E-03  1.1137E-02   44.260 
    11    2    0.5003    0.0000    0.2329   0.06655  8.7094E-03  8.8791E-03  1.2438E-02   45.553 
    12    2    0.5003    0.0000    0.2995   0.06655  7.9758E-03  7.7723E-03  1.1137E-02   44.260 
    13    2    0.5003    0.0000    0.3660   0.06655  5.8658E-03  5.4915E-03  8.0351E-03   43.112 
    14    2    0.5003    0.0000    0.4326   0.06655  2.4814E-03  2.2561E-03  3.3537E-03   42.278 
    15    3    1.0007    0.0000    0.0333   0.06655  3.5056E-03  1.2314E-03  3.7155E-03   19.354 
    16    3    1.0007    0.0000    0.0998   0.06655  8.2985E-03  3.2039E-03  8.8955E-03   21.110 
    17    3    1.0007    0.0000    0.1664   0.06655  1.1293E-02  4.9216E-03  1.2319E-02   23.547 
    18    3    1.0007    0.0000    0.2329   0.06655  1.2335E-02  6.0995E-03  1.3761E-02   26.311 
    19    3    1.0007    0.0000    0.2995   0.06655  1.1293E-02  4.9216E-03  1.2319E-02   23.547 
    20    3    1.0007    0.0000    0.3660   0.06655  8.2985E-03  3.2039E-03  8.8955E-03   21.110 
    21    3    1.0007    0.0000    0.4326   0.06655  3.5056E-03  1.2314E-03  3.7155E-03   19.354 
    22    4    1.5010    0.0000    0.0333   0.06655  1.8021E-03  1.0786E-03  2.1002E-03   30.900 
    23    4    1.5010    0.0000    0.0998   0.06655  4.2629E-03  2.6879E-03  5.0395E-03   32.233 
    24    4    1.5010    0.0000    0.1664   0.06655  5.7986E-03  3.9214E-03  7.0001E-03   34.069 
    25    4    1.5010    0.0000    0.2329   0.06655  6.3327E-03  4.6242E-03  7.8413E-03   36.137 
    26    4    1.5010    0.0000    0.2995   0.06655  5.7986E-03  3.9214E-03  7.0001E-03   34.069 
    27    4    1.5010    0.0000    0.3660   0.06655  4.2629E-03  2.6879E-03  5.0395E-03   32.233 
    28    4    1.5010    0.0000    0.4326   0.06655  1.8021E-03  1.0786E-03  2.1002E-03   30.900 
    29    5    2.0014    0.0000    0.0333   0.06655  2.9228E-04  8.9036E-04  9.3711E-04   71.827 
    30    5    2.0014    0.0000    0.0998   0.06655  6.8387E-04  2.1153E-03  2.2231E-03   72.084 
    31    5    2.0014    0.0000    0.1664   0.06655  9.2407E-04  2.8974E-03  3.0412E-03   72.311 
    32    5    2.0014    0.0000    0.2329   0.06655  1.0070E-03  3.1914E-03  3.3465E-03   72.488 
    33    5    2.0014    0.0000    0.2995   0.06655  9.2407E-04  2.8974E-03  3.0412E-03   72.311 
    34    5    2.0014    0.0000    0.3660   0.06655  6.8387E-04  2.1153E-03  2.2231E-03   72.084 
    35    5    2.0014    0.0000    0.4326   0.06655  2.9228E-04  8.9036E-04  9.3711E-04   71.827 
    36    6    2.5017    0.0000    0.0333   0.06655  2.0630E-03  3.3328E-04  2.0898E-03    9.177 
    37    6    2.5017    0.0000    0.0998   0.06655  4.8873E-03  9.7575E-04  4.9838E-03   11.291 
    38    6    2.5017    0.0000    0.1664   0.06655  6.6540E-03  1.6884E-03  6.8649E-03   14.238 
    39    6    2.5017    0.0000    0.2329   0.06655  7.2690E-03  2.3073E-03  7.6264E-03   17.610 
    40    6    2.5017    0.0000    0.2995   0.06655  6.6540E-03  1.6884E-03  6.8649E-03   14.238 
    41    6    2.5017    0.0000    0.3660   0.06655  4.8873E-03  9.7575E-04  4.9838E-03   11.291 
    42    6    2.5017    0.0000    0.4326   0.06655  2.0630E-03  3.3328E-04  2.0898E-03    9.177 
    43    7    3.0020    0.0000    0.0333   0.06655  8.9358E-04  1.1581E-03  1.4628E-03   52.347 
    44    7    3.0020    0.0000    0.0998   0.06655  2.1097E-03  2.7751E-03  3.4860E-03   52.756 
    45    7    3.0020    0.0000    0.1664   0.06655  2.8665E-03  3.8464E-03  4.7971E-03   53.305 
    46    7    3.0020    0.0000    0.2329   0.06655  3.1294E-03  4.2945E-03  5.3138E-03   53.919 
    47    7    3.0020    0.0000    0.2995   0.06655  2.8665E-03  3.8464E-03  4.7971E-03   53.305 
    48    7    3.0020    0.0000    0.3660   0.06655  2.1097E-03  2.7751E-03  3.4860E-03   52.756 
    49    7    3.0020    0.0000    0.4326   0.06655  8.9358E-04  1.1581E-03  1.4628E-03   52.347 
    50    8    3.5024    0.0000    0.0333   0.06655  1.3955E-03  6.8019E-05  1.3971E-03    2.791 
    51    8    3.5024    0.0000    0.0998   0.06655  3.3051E-03  2.9148E-04  3.3180E-03    5.040 
    52    8    3.5024    0.0000    0.1664   0.06655  4.4993E-03  6.4649E-04  4.5455E-03    8.177 
    53    8    3.5024    0.0000    0.2329   0.06655  4.9150E-03  1.0258E-03  5.0209E-03   11.789 
    54    8    3.5024    0.0000    0.2995   0.06655  4.4993E-03  6.4649E-04  4.5455E-03    8.177 
    55    8    3.5024    0.0000    0.3660   0.06655  3.3051E-03  2.9148E-04  3.3180E-03    5.040 
    56    8    3.5024    0.0000    0.4326   0.06655  1.3955E-03  6.8019E-05  1.3971E-03    2.791 






                               ---------- POWER BUDGET ---------
                               INPUT POWER   = 1.9218E-002 Watts
                               RADIATED POWER= 1.9218E-002 Watts
                               STRUCTURE LOSS= 0.0000E+000 Watts
                               NETWORK LOSS  = 0.0000E+000 Watts
                               EFFICIENCY    =  100.00 Percent


                         ----- RADIATION PATTERNS -----
 ---- ANGLES -----     ----- POWER GAINS -----       ---- POLARIZATION ----   ---- E(THETA) ----    ----- E(PHI) ------
  THETA      PHI       VERTC   HORIZ   TOTAL       AXIAL      TILT  SENSE   MAGNITUDE    PHASE    MAGNITUDE     PHASE
 DEGREES   DEGREES        DB       DB       DB       RATIO   DEGREES            VOLTS/M   DEGREES     VOLTS/M   DEGREES
   90.00      0.00    -20.68  -999.99   -20.68      0.0000      0.00 LINEAR  9.9293E-02     96.05  0.0000E+00      0.00
   90.00      1.00    -20.63  -999.99   -20.63      0.0000      0.00 LINEAR  9.9826E-02     96.85  0.0000E+00      0.00
   90.00      2.00    -20.48  -999.99   -20.48      0.0000      0.00 LINEAR  1.0156E-01     99.19  0.0000E+00      0.00
   90.00      3.00    -20.20  -999.99   -20.20      0.0000      0.00 LINEAR  1.0489E-01    102.88  0.0000E+00      0.00
   90.00      4.00    -19.76  -999.99   -19.76      0.0000      0.00 LINEAR  1.1038E-01    107.58  0.0000E+00      0.00
   90.00      5.00    -19.13  -999.99   -19.13      0.0000      0.00 LINEAR  1.1863E-01    112.84  0.0000E+00      0.00
   90.00      6.00    -18.33  -999.99   -18.33      0.0000      0.00 LINEAR  1.3017E-01    118.13  0.0000E+00      0.00
   90.00      7.00    -17.37  -999.99   -17.37      0.0000      0.00 LINEAR  1.4536E-01    123.02  0.0000E+00      0.00
   90.00      8.00    -16.30  -999.99   -16.30      0.0000      0.00 LINEAR  1.6434E-01    127.21  0.0000E+00      0.00
   90.00      9.00    -15.17  -999.99   -15.17      0.0000      0.00 LINEAR  1.8708E-01    130.56  0.0000E+00      0.00
   90.00     10.00    -14.03  -999.99   -14.03      0.0000      0.00 LINEAR  2.1347E-01    133.06  0.0000E+00      0.00
   90.00     11.00    -12.89  -999.99   -12.89      0.0000      0.00 LINEAR  2.4331E-01    134.76  0.0000E+00      0.00
