


                                __________________________________________
                               |                                          |
                               | NUMERICAL ELECTROMAGNETICS CODE (nec2++) |
                               | Translated to 'C++' in Double Precision  |
                               |        Version 1.5.4 [2014-12-06]        |
                               |__________________________________________|



                               ---------------- COMMENTS ----------------
                                forw: 90, 0 ; back: 0, 0
                               



                                -------- STRUCTURE SPECIFICATION --------
                                COORDINATES MUST BE INPUT IN
                                METERS OR BE SCALED TO METERS
                                BEFORE STRUCTURE INPUT IS ENDED
  WIRE                                                                                 SEG FIRST  LAST  TAG
   No:        X1         Y1         Z1         X2         Y2         Z2       RADIUS   No:   SEG   SEG  No:

     1      0.0000     0.0000     0.0000     0.0000     0.0000     0.0582     0.0004     7     1     7    1
     2      0.0625     0.0000     0.0000     0.0625     0.0000     0.0582     0.0004     7     8    14    2
     3      0.1250     0.0000     0.0000     0.1250     0.0000     0.0582     0.0004     7    15    21    3
     4      0.1875     0.0000     0.0000     0.1875     0.0000     0.0582     0.0004     7    22    28    4
     5      0.2500     0.0000     0.0000     0.2500     0.0000     0.0582     0.0004     7    29    35    5
     6      0.3125     0.0000     0.0000     0.3125     0.0000     0.0582     0.0004     7    36    42    6
     7      0.3750     0.0000     0.0000     0.3750     0.0000     0.0582     0.0004     7    43    49    7
     8      0.4375     0.0000     0.0000     0.4375     0.0000     0.0582     0.0004     7    50    56    8

     TOTAL SEGMENTS USED: 56   SEGMENTS IN A SYMMETRIC CELL: 56   SYMMETRY FLAG: 0


                               ---------- SEGMENTATION DATA ----------
                                        COORDINATES IN METERS
                            I+ AND I- INDICATE THE SEGMENTS BEFORE AND AFTER I

   SEG    COORDINATES OF SEGM CENTER     SEGM    ORIENTATION ANGLES    WIRE    CONNECTION DATA   TAG
   No:       X         Y         Z      LENGTH     ALPHA      BETA    RADIUS    I-     I    I+   NO:
     1    0.0000    0.0000    0.0042    0.0083   90.0000    0.0000    0.0004     0     1     2     1
     2    0.0000    0.0000    0.0125    0.0083   90.0000    0.0000    0.0004     1     2     3     1
     3    0.0000    0.0000    0.0208    0.0083   90.0000    0.0000    0.0004     2     3     4     1
     4    0.0000    0.0000    0.0291    0.0083   90.0000    0.0000    0.0004     3     4     5     1
     5    0.0000    0.0000    0.0374    0.0083   90.0000    0.0000    0.0004     4     5     6     1
     6    0.0000    0.0000    0.0457    0.0083   90.0000    0.0000    0.0004     5     6     7     1
     7    0.0000    0.0000    0.0540    0.0083   90.0000    0.0000    0.0004     6     7     0     1
     8    0.0625    0.0000    0.0042    0.0083   90.0000    0.0000    0.0004     0     8     9     2
     9    0.0625    0.0000    0.0125    0.0083   90.0000    0.0000    0.0004     8     9    10     2
    10    0.0625    0.0000    0.0208    0.0083   90.0000    0.0000    0.0004     9    10    11     2
    11    0.0625    0.0000    0.0291    0.0083   90.0000    0.0000    0.0004    10    11    12     2
    12    0.0625    0.0000    0.0374    0.0083   90.0000    0.0000    0.0004    11    12    13     2
    13    0.0625    0.0000    0.0457    0.0083   90.0000    0.0000    0.0004    12    13    14     2
    14    0.0625    0.0000    0.0540    0.0083   90.0000    0.0000    0.0004    13    14     0     2
    15    0.1250    0.0000    0.0042    0.0083   90.0000    0.0000    0.0004     0    15    16     3
    16    0.1250    0.0000    0.0125    0.0083   90.0000    0.0000    0.0004    15    16    17     3
    17    0.1250    0.0000    0.0208    0.0083   90.0000    0.0000    0.0004    16    17    18     3
    18    0.1250    0.0000    0.0291    0.0083   90.0000    0.0000    0.0004    17    18    19     3
    19    0.1250    0.0000    0.0374    0.0083   90.0000    0.0000    0.0004    18    19    20     3
    20    0.1250    0.0000    0.0457    0.0083   90.0000    0.0000    0.0004    19    20    21     3
    21    0.1250    0.0000    0.0540    0.0083   90.0000    0.0000    0.0004    20    21     0     3
    22    0.1875    0.0000    0.0042    0.0083   90.0000    0.0000    0.0004     0    22    23     4
    23    0.1875    0.0000    0.0125    0.0083   90.0000    0.0000    0.0004    22    23    24     4
    24    0.1875    0.0000    0.0208    0.0083   90.0000    0.0000    0.0004    23    24    25     4
    25    0.1875    0.0000    0.0291    0.0083   90.0000    0.0000    0.0004    24    25    26     4
    26    0.1875    0.0000    0.0374    0.0083   90.0000    0.0000    0.0004    25    26    27     4
    27    0.1875    0.0000    0.0457    0.0083   90.0000    0.0000    0.0004    26    27    28     4
    28    0.1875    0.0000    0.0540    0.0083   90.0000    0.0000    0.0004    27    28     0     4
    29    0.2500    0.0000    0.0042    0.0083   90.0000    0.0000    0.0004     0    29    30     5
    30    0.2500    0.0000    0.0125    0.0083   90.0000    0.0000    0.0004    29    30    31     5
    31    0.2500    0.0000    0.0208    0.0083   90.0000    0.0000    0.0004    30    31    32     5
    32    0.2500    0.0000    0.0291    0.0083   90.0000    0.0000    0.0004    31    32    33     5
    33    0.2500    0.0000    0.0374    0.0083   90.0000    0.0000    0.0004    32    33    34     5
    34    0.2500    0.0000    0.0457    0.0083   90.0000    0.0000    0.0004    33    34    35     5
    35    0.2500    0.0000    0.0540    0.0083   90.0000    0.0000    0.0004    34    35     0     5
    36    0.3125    0.0000    0.0042    0.0083   90.0000    0.0000    0.0004     0    36    37     6
    37    0.3125    0.0000    0.0125    0.0083   90.0000    0.0000    0.0004    36    37    38     6
    38    0.3125    0.0000    0.0208    0.0083   90.0000    0.0000    0.0004    37    38    39     6
    39    0.3125    0.0000    0.0291    0.0083   90.0000    0.0000    0.0004    38    39    40     6
    40    0.3125    0.0000    0.0374    0.0083   90.0000    0.0000    0.0004    39    40    41     6
    41    0.3125    0.0000    0.0457    0.0083   90.0000    0.0000    0.0004    40    41    42     6
    42    0.3125    0.0000    0.0540    0.0083   90.0000    0.0000    0.0004    41    42     0     6
    43    0.3750    0.0000    0.0042    0.0083   90.0000    0.0000    0.0004     0    43    44     7
    44    0.3750    0.0000    0.0125    0.0083   90.0000    0.0000    0.0004    43    44    45     7
    45    0.3750    0.0000    0.0208    0.0083   90.0000    0.0000    0.0004    44    45    46     7
    46    0.3750    0.0000    0.0291    0.0083   90.0000    0.0000    0.0004    45    46    47     7
    47    0.3750    0.0000    0.0374    0.0083   90.0000    0.0000    0.0004    46    47    48     7
    48    0.3750    0.0000    0.0457    0.0083   90.0000    0.0000    0.0004    47    48    49     7
    49    0.3750    0.0000    0.0540    0.0083   90.0000    0.0000    0.0004    48    49     0     7
    50    0.4375    0.0000    0.0042    0.0083   90.0000    0.0000    0.0004     0    50    51     8
    51    0.4375    0.0000    0.0125    0.0083   90.0000    0.0000    0.0004    50    51    52     8
    52    0.4375    0.0000    0.0208    0.0083   90.0000    0.0000    0.0004    51    52    53     8
    53    0.4375    0.0000    0.0291    0.0083   90.0000    0.0000    0.0004    52    53    54     8
    54    0.4375    0.0000    0.0374    0.0083   90.0000    0.0000    0.0004    53    54    55     8
    55    0.4375    0.0000    0.0457    0.0083   90.0000    0.0000    0.0004    54    55    56     8
    56    0.4375    0.0000    0.0540    0.0083   90.0000    0.0000    0.0004    55    56     0     8



*****  DATA CARD N0.   1 EK   0     0     0     0 0.00000E+000 0.00000E+000 0.00000E+000 0.00000E+000 0.00000E+000 0.00000E+000
*****  DATA CARD N0.   2 EX   0     1     4     0 5.31593E-001 0.00000E+000 0.00000E+000 0.00000E+000 0.00000E+000 0.00000E+000
*****  DATA CARD N0.   3 EX   0     2     4     0 3.97033E-001 0.00000E+000 0.00000E+000 0.00000E+000 0.00000E+000 0.00000E+000
*****  DATA CARD N0.   4 EX   0     3     4     0 7.75400E-001 0.00000E+000 0.00000E+000 0.00000E+000 0.00000E+000 0.00000E+000
*****  DATA CARD N0.   5 EX   0     4     4     0 7.26551E-001 0.00000E+000 0.00000E+000 0.00000E+000 0.00000E+000 0.00000E+000
*****  DATA CARD N0.   6 EX   0     5     4     0 6.67672E-001 0.00000E+000 0.00000E+000 0.00000E+000 0.00000E+000 0.00000E+000
*****  DATA CARD N0.   7 EX   0     6     4     0 5.44172E-001 0.00000E+000 0.00000E+000 0.00000E+000 0.00000E+000 0.00000E+000
*****  DATA CARD N0.   8 EX   0     7     4     0 4.33022E-001 0.00000E+000 0.00000E+000 0.00000E+000 0.00000E+000 0.00000E+000
*****  DATA CARD N0.   9 EX   0     8     4     0 1.47672E-001 0.00000E+000 0.00000E+000 0.00000E+000 0.00000E+000 0.00000E+000
*****  DATA CARD N0.  10 GN  -1     0     0     0 0.00000E+000 0.00000E+000 0.00000E+000 0.00000E+000 0.00000E+000 0.00000E+000
*****  DATA CARD N0.  11 FR   0     1     0     0 2.40000E+003 0.00000E+000 0.00000E+000 0.00000E+000 0.00000E+000 0.00000E+000
*****  DATA CARD N0.  12 RP   0     1   361  1000 9.00000E+001 0.00000E+000 0.00000E+000 1.00000E+000 0.00000E+000 0.00000E+000


                               --------- FREQUENCY --------
                               FREQUENCY= 2.4000E+003 MHZ
                               WAVELENGTH=1.2491E-001 METERS


                        APPROXIMATE INTEGRATION EMPLOYED FOR SEGMENTS
                        THAT ARE MORE THAN 1.000 WAVELENGTHS APART
                        THE EXTENDED THIN WIRE KERNEL WILL BE USED



                          ------ STRUCTURE IMPEDANCE LOADING ------
                                 THIS STRUCTURE IS NOT LOADED



                            -------- ANTENNA ENVIRONMENT --------
                            FREE SPACE



                             ---------- MATRIX TIMING ----------
                               FILL= 4 msec  FACTOR: 1 msec


                      ----- ANTENNA INPUT PARAMETERS -----
  TAG   SEG       VOLTAGE (VOLTS)         CURRENT (AMPS)         IMPEDANCE (OHMS)        ADMITTANCE (MHOS)     POWER
  NO.   NO.     REAL      IMAGINARY     REAL      IMAGINARY     REAL      IMAGINARY    REAL       IMAGINARY   (WATTS)
   1     4  5.3159E-01  0.0000E+00  6.6500E-03  2.2699E-03  7.1597E+01 -2.4438E+01  1.2510E-02  4.2700E-03  1.7676E-03
   2    11  3.9703E-01  0.0000E+00  6.4404E-03  5.8232E-03  3.3918E+01 -3.0668E+01  1.6221E-02  1.4667E-02  1.2785E-03
   3    18  7.7540E-01  0.0000E+00  9.7485E-03  5.9365E-03  5.8023E+01 -3.5334E+01  1.2572E-02  7.6560E-03  3.7795E-03
   4    25  7.2655E-01  0.0000E+00  1.0651E-02  7.1538E-03  4.7009E+01 -3.1575E+01  1.4659E-02  9.8462E-03  3.8691E-03
   5    32  6.6767E-01  0.0000E+00  8.6324E-03  6.1460E-03  5.1327E+01 -3.6543E+01  1.2929E-02  9.2052E-03  2.8818E-03
   6    39  5.4417E-01  0.0000E+00  7.8518E-03  5.2714E-03  4.7773E+01 -3.2073E+01  1.4429E-02  9.6870E-03  2.1364E-03
   7    46  4.3302E-01  0.0000E+00  5.5806E-03  3.6691E-03  5.4176E+01 -3.5619E+01  1.2888E-02  8.4732E-03  1.2083E-03
   8    53  1.4767E-01  0.0000E+00  2.3579E-03  1.7564E-03  4.0279E+01 -3.0004E+01  1.5967E-02  1.1894E-02  1.7410E-04







                        ----- CURRENTS AND LOCATION -----
                            DISTANCES IN WAVELENGTHS 

   SEG  TAG    COORDINATES OF SEGM CENTER     SEGM    ------------- CURRENT (AMPS) -------------
   No:  No:       X         Y         Z      LENGTH     REAL      IMAGINARY    MAGN        PHASE
     1    1    0.0000    0.0000    0.0333   0.06655  1.8896E-03  3.6703E-04  1.9250E-03   10.992 
     2    1    0.0000    0.0000    0.0998   0.06655  4.4735E-03  1.0303E-03  4.5906E-03   12.969 
     3    1    0.0000    0.0000    0.1664   0.06655  6.0882E-03  1.7129E-03  6.3246E-03   15.714 
     4    1    0.0000    0.0000    0.2329   0.06655  6.6500E-03  2.2699E-03  7.0268E-03   18.847 
     5    1    0.0000    0.0000    0.2995   0.06655  6.0882E-03  1.7129E-03  6.3246E-03   15.714 
     6    1    0.0000    0.0000    0.3660   0.06655  4.4735E-03  1.0303E-03  4.5906E-03   12.969 
     7    1    0.0000    0.0000    0.4326   0.06655  1.8896E-03  3.6703E-04  1.9250E-03   10.992 
     8    2    0.5003    0.0000    0.0333   0.06655  1.8340E-03  1.4515E-03  2.3389E-03   38.358 
     9    2    0.5003    0.0000    0.0998   0.06655  4.3367E-03  3.5509E-03  5.6050E-03   39.310 
    10    2    0.5003    0.0000    0.1664   0.06655  5.8977E-03  5.0600E-03  7.7708E-03   40.628 
    11    2    0.5003    0.0000    0.2329   0.06655  6.4404E-03  5.8232E-03  8.6827E-03   42.119 
    12    2    0.5003    0.0000    0.2995   0.06655  5.8977E-03  5.0600E-03  7.7708E-03   40.628 
    13    2    0.5003    0.0000    0.3660   0.06655  4.3367E-03  3.5509E-03  5.6050E-03   39.310 
    14    2    0.5003    0.0000    0.4326   0.06655  1.8340E-03  1.4515E-03  2.3389E-03   38.358 
    15    3    1.0007    0.0000    0.0333   0.06655  2.7728E-03  1.2845E-03  3.0559E-03   24.857 
    16    3    1.0007    0.0000    0.0998   0.06655  6.5607E-03  3.2723E-03  7.3315E-03   26.508 
    17    3    1.0007    0.0000    0.1664   0.06655  8.9258E-03  4.9034E-03  1.0184E-02   28.782 
    18    3    1.0007    0.0000    0.2329   0.06655  9.7485E-03  5.9365E-03  1.1414E-02   31.340 
    19    3    1.0007    0.0000    0.2995   0.06655  8.9258E-03  4.9034E-03  1.0184E-02   28.782 
    20    3    1.0007    0.0000    0.3660   0.06655  6.5607E-03  3.2723E-03  7.3315E-03   26.508 
    21    3    1.0007    0.0000    0.4326   0.06655  2.7728E-03  1.2845E-03  3.0559E-03   24.857 
    22    4    1.5010    0.0000    0.0333   0.06655  3.0293E-03  1.6580E-03  3.4534E-03   28.693 
    23    4    1.5010    0.0000    0.0998   0.06655  7.1678E-03  4.1388E-03  8.2769E-03   30.003 
    24    4    1.5010    0.0000    0.1664   0.06655  9.7518E-03  6.0520E-03  1.1477E-02   31.824 
    25    4    1.5010    0.0000    0.2329   0.06655  1.0651E-02  7.1538E-03  1.2830E-02   33.888 
    26    4    1.5010    0.0000    0.2995   0.06655  9.7518E-03  6.0520E-03  1.1477E-02   31.824 
    27    4    1.5010    0.0000    0.3660   0.06655  7.1678E-03  4.1388E-03  8.2769E-03   30.003 
    28    4    1.5010    0.0000    0.4326   0.06655  3.0293E-03  1.6580E-03  3.4534E-03   28.693 
    29    5    2.0014    0.0000    0.0333   0.06655  2.4569E-03  1.4007E-03  2.8282E-03   29.688 
    30    5    2.0014    0.0000    0.0998   0.06655  5.8113E-03  3.5142E-03  6.7912E-03   31.162 
    31    5    2.0014    0.0000    0.1664   0.06655  7.9045E-03  5.1693E-03  9.4447E-03   33.184 
    32    5    2.0014    0.0000    0.2329   0.06655  8.6324E-03  6.1460E-03  1.0597E-02   35.450 
    33    5    2.0014    0.0000    0.2995   0.06655  7.9045E-03  5.1693E-03  9.4447E-03   33.184 
    34    5    2.0014    0.0000    0.3660   0.06655  5.8113E-03  3.5142E-03  6.7912E-03   31.162 
    35    5    2.0014    0.0000    0.4326   0.06655  2.4569E-03  1.4007E-03  2.8282E-03   29.688 
    36    6    2.5017    0.0000    0.0333   0.06655  2.2335E-03  1.2172E-03  2.5437E-03   28.589 
    37    6    2.5017    0.0000    0.0998   0.06655  5.2845E-03  3.0416E-03  6.0974E-03   29.924 
    38    6    2.5017    0.0000    0.1664   0.06655  7.1893E-03  4.4535E-03  8.4569E-03   31.777 
    39    6    2.5017    0.0000    0.2329   0.06655  7.8518E-03  5.2714E-03  9.4572E-03   33.876 
    40    6    2.5017    0.0000    0.2995   0.06655  7.1893E-03  4.4535E-03  8.4569E-03   31.777 
    41    6    2.5017    0.0000    0.3660   0.06655  5.2845E-03  3.0416E-03  6.0974E-03   29.924 
    42    6    2.5017    0.0000    0.4326   0.06655  2.2335E-03  1.2172E-03  2.5437E-03   28.589 
    43    7    3.0020    0.0000    0.0333   0.06655  1.5875E-03  8.1803E-04  1.7859E-03   27.262 
    44    7    3.0020    0.0000    0.0998   0.06655  3.7560E-03  2.0656E-03  4.2865E-03   28.808 
    45    7    3.0020    0.0000    0.1664   0.06655  5.1097E-03  3.0623E-03  5.9571E-03   30.935 
    46    7    3.0020    0.0000    0.2329   0.06655  5.5806E-03  3.6691E-03  6.6787E-03   33.324 
    47    7    3.0020    0.0000    0.2995   0.06655  5.1097E-03  3.0623E-03  5.9571E-03   30.935 
    48    7    3.0020    0.0000    0.3660   0.06655  3.7560E-03  2.0656E-03  4.2865E-03   28.808 
    49    7    3.0020    0.0000    0.4326   0.06655  1.5875E-03  8.1803E-04  1.7859E-03   27.262 
    50    8    3.5024    0.0000    0.0333   0.06655  6.7138E-04  4.2331E-04  7.9369E-04   32.232 
    51    8    3.5024    0.0000    0.0998   0.06655  1.5876E-03  1.0451E-03  1.9007E-03   33.355 
    52    8    3.5024    0.0000    0.1664   0.06655  2.1591E-03  1.5071E-03  2.6331E-03   34.914 
    53    8    3.5024    0.0000    0.2329   0.06655  2.3579E-03  1.7564E-03  2.9402E-03   36.683 
    54    8    3.5024    0.0000    0.2995   0.06655  2.1591E-03  1.5071E-03  2.6331E-03   34.914 
    55    8    3.5024    0.0000    0.3660   0.06655  1.5876E-03  1.0451E-03  1.9007E-03   33.355 
    56    8    3.5024    0.0000    0.4326   0.06655  6.7138E-04  4.2331E-04  7.9369E-04   32.232 






                               ---------- POWER BUDGET ---------
                               INPUT POWER   = 1.7095E-002 Watts
                               RADIATED POWER= 1.7095E-002 Watts
                               STRUCTURE LOSS= 0.0000E+000 Watts
                               NETWORK LOSS  = 0.0000E+000 Watts
                               EFFICIENCY    =  100.00 Percent


                         ----- RADIATION PATTERNS -----
 ---- ANGLES -----     ----- POWER GAINS -----       ---- POLARIZATION ----   ---- E(THETA) ----    ----- E(PHI) ------
  THETA      PHI       VERTC   HORIZ   TOTAL       AXIAL      TILT  SENSE   MAGNITUDE    PHASE    MAGNITUDE     PHASE
 DEGREES   DEGREES        DB       DB       DB       RATIO   DEGREES            VOLTS/M   DEGREES     VOLTS/M   DEGREES
   90.00      0.00    -12.29  -999.99   -12.29      0.0000      0.00 LINEAR  2.4605E-01     52.72  0.0000E+00      0.00
   90.00      1.00    -12.30  -999.99   -12.30      0.0000      0.00 LINEAR  2.4576E-01     52.72  0.0000E+00      0.00
   90.00      2.00    -12.33  -999.99   -12.33      0.0000      0.00 LINEAR  2.4488E-01     52.73  0.0000E+00      0.00
   90.00      3.00    -12.38  -999.99   -12.38      0.0000      0.00 LINEAR  2.4343E-01     52.75  0.0000E+00      0.00
   90.00      4.00    -12.45  -999.99   -12.45      0.0000      0.00 LINEAR  2.4140E-01     52.78  0.0000E+00      0.00
   90.00      5.00    -12.55  -999.99   -12.55      0.0000      0.00 LINEAR  2.3880E-01     52.83  0.0000E+00      0.00
   90.00      6.00    -12.66  -999.99   -12.66      0.0000      0.00 LINEAR  2.3564E-01     52.92  0.0000E+00      0.00
   90.00      7.00    -12.80  -999.99   -12.80      0.0000      0.00 LINEAR  2.3193E-01     53.05  0.0000E+00      0.00
   90.00      8.00    -12.96  -999.99   -12.96      0.0000      0.00 LINEAR  2.2771E-01     53.23  0.0000E+00      0.00
   90.00      9.00    -13.14  -999.99   -13.14      0.0000      0.00 LINEAR  2.2298E-01     53.50  0.0000E+00      0.00
   90.00     10.00    -13.35  -999.99   -13.35      0.0000      0.00 LINEAR  2.1781E-01     53.86  0.0000E+00      0.00
   90.00     11.00    -13.57  -999.99   -13.57      0.0000      0.00 LINEAR  2.1224E-01     54.36  0.0000E+00      0.00
