


                                __________________________________________
                               |                                          |
                               | NUMERICAL ELECTROMAGNETICS CODE (nec2++) |
                               | Translated to 'C++' in Double Precision  |
                               |        Version 1.5.4 [2014-12-06]        |
                               |__________________________________________|



                               ---------------- COMMENTS ----------------
                                forw: 90, 0 ; back: 0, 0
                               



                                -------- STRUCTURE SPECIFICATION --------
                                COORDINATES MUST BE INPUT IN
                                METERS OR BE SCALED TO METERS
                                BEFORE STRUCTURE INPUT IS ENDED
  WIRE                                                                                 SEG FIRST  LAST  TAG
   No:        X1         Y1         Z1         X2         Y2         Z2       RADIUS   No:   SEG   SEG  No:

     1      0.0000     0.0000     0.0000     0.0000     0.0000     0.0582     0.0004     7     1     7    1
     2      0.0625     0.0000     0.0000     0.0625     0.0000     0.0582     0.0004     7     8    14    2
     3      0.1250     0.0000     0.0000     0.1250     0.0000     0.0582     0.0004     7    15    21    3
     4      0.1875     0.0000     0.0000     0.1875     0.0000     0.0582     0.0004     7    22    28    4
     5      0.2500     0.0000     0.0000     0.2500     0.0000     0.0582     0.0004     7    29    35    5
     6      0.3125     0.0000     0.0000     0.3125     0.0000     0.0582     0.0004     7    36    42    6
     7      0.3750     0.0000     0.0000     0.3750     0.0000     0.0582     0.0004     7    43    49    7
     8      0.4375     0.0000     0.0000     0.4375     0.0000     0.0582     0.0004     7    50    56    8

     TOTAL SEGMENTS USED: 56   SEGMENTS IN A SYMMETRIC CELL: 56   SYMMETRY FLAG: 0


                               ---------- SEGMENTATION DATA ----------
                                        COORDINATES IN METERS
                            I+ AND I- INDICATE THE SEGMENTS BEFORE AND AFTER I

   SEG    COORDINATES OF SEGM CENTER     SEGM    ORIENTATION ANGLES    WIRE    CONNECTION DATA   TAG
   No:       X         Y         Z      LENGTH     ALPHA      BETA    RADIUS    I-     I    I+   NO:
     1    0.0000    0.0000    0.0042    0.0083   90.0000    0.0000    0.0004     0     1     2     1
     2    0.0000    0.0000    0.0125    0.0083   90.0000    0.0000    0.0004     1     2     3     1
     3    0.0000    0.0000    0.0208    0.0083   90.0000    0.0000    0.0004     2     3     4     1
     4    0.0000    0.0000    0.0291    0.0083   90.0000    0.0000    0.0004     3     4     5     1
     5    0.0000    0.0000    0.0374    0.0083   90.0000    0.0000    0.0004     4     5     6     1
     6    0.0000    0.0000    0.0457    0.0083   90.0000    0.0000    0.0004     5     6     7     1
     7    0.0000    0.0000    0.0540    0.0083   90.0000    0.0000    0.0004     6     7     0     1
     8    0.0625    0.0000    0.0042    0.0083   90.0000    0.0000    0.0004     0     8     9     2
     9    0.0625    0.0000    0.0125    0.0083   90.0000    0.0000    0.0004     8     9    10     2
    10    0.0625    0.0000    0.0208    0.0083   90.0000    0.0000    0.0004     9    10    11     2
    11    0.0625    0.0000    0.0291    0.0083   90.0000    0.0000    0.0004    10    11    12     2
    12    0.0625    0.0000    0.0374    0.0083   90.0000    0.0000    0.0004    11    12    13     2
    13    0.0625    0.0000    0.0457    0.0083   90.0000    0.0000    0.0004    12    13    14     2
    14    0.0625    0.0000    0.0540    0.0083   90.0000    0.0000    0.0004    13    14     0     2
    15    0.1250    0.0000    0.0042    0.0083   90.0000    0.0000    0.0004     0    15    16     3
    16    0.1250    0.0000    0.0125    0.0083   90.0000    0.0000    0.0004    15    16    17     3
    17    0.1250    0.0000    0.0208    0.0083   90.0000    0.0000    0.0004    16    17    18     3
    18    0.1250    0.0000    0.0291    0.0083   90.0000    0.0000    0.0004    17    18    19     3
    19    0.1250    0.0000    0.0374    0.0083   90.0000    0.0000    0.0004    18    19    20     3
    20    0.1250    0.0000    0.0457    0.0083   90.0000    0.0000    0.0004    19    20    21     3
    21    0.1250    0.0000    0.0540    0.0083   90.0000    0.0000    0.0004    20    21     0     3
    22    0.1875    0.0000    0.0042    0.0083   90.0000    0.0000    0.0004     0    22    23     4
    23    0.1875    0.0000    0.0125    0.0083   90.0000    0.0000    0.0004    22    23    24     4
    24    0.1875    0.0000    0.0208    0.0083   90.0000    0.0000    0.0004    23    24    25     4
    25    0.1875    0.0000    0.0291    0.0083   90.0000    0.0000    0.0004    24    25    26     4
    26    0.1875    0.0000    0.0374    0.0083   90.0000    0.0000    0.0004    25    26    27     4
    27    0.1875    0.0000    0.0457    0.0083   90.0000    0.0000    0.0004    26    27    28     4
    28    0.1875    0.0000    0.0540    0.0083   90.0000    0.0000    0.0004    27    28     0     4
    29    0.2500    0.0000    0.0042    0.0083   90.0000    0.0000    0.0004     0    29    30     5
    30    0.2500    0.0000    0.0125    0.0083   90.0000    0.0000    0.0004    29    30    31     5
    31    0.2500    0.0000    0.0208    0.0083   90.0000    0.0000    0.0004    30    31    32     5
    32    0.2500    0.0000    0.0291    0.0083   90.0000    0.0000    0.0004    31    32    33     5
    33    0.2500    0.0000    0.0374    0.0083   90.0000    0.0000    0.0004    32    33    34     5
    34    0.2500    0.0000    0.0457    0.0083   90.0000    0.0000    0.0004    33    34    35     5
    35    0.2500    0.0000    0.0540    0.0083   90.0000    0.0000    0.0004    34    35     0     5
    36    0.3125    0.0000    0.0042    0.0083   90.0000    0.0000    0.0004     0    36    37     6
    37    0.3125    0.0000    0.0125    0.0083   90.0000    0.0000    0.0004    36    37    38     6
    38    0.3125    0.0000    0.0208    0.0083   90.0000    0.0000    0.0004    37    38    39     6
    39    0.3125    0.0000    0.0291    0.0083   90.0000    0.0000    0.0004    38    39    40     6
    40    0.3125    0.0000    0.0374    0.0083   90.0000    0.0000    0.0004    39    40    41     6
    41    0.3125    0.0000    0.0457    0.0083   90.0000    0.0000    0.0004    40    41    42     6
    42    0.3125    0.0000    0.0540    0.0083   90.0000    0.0000    0.0004    41    42     0     6
    43    0.3750    0.0000    0.0042    0.0083   90.0000    0.0000    0.0004     0    43    44     7
    44    0.3750    0.0000    0.0125    0.0083   90.0000    0.0000    0.0004    43    44    45     7
    45    0.3750    0.0000    0.0208    0.0083   90.0000    0.0000    0.0004    44    45    46     7
    46    0.3750    0.0000    0.0291    0.0083   90.0000    0.0000    0.0004    45    46    47     7
    47    0.3750    0.0000    0.0374    0.0083   90.0000    0.0000    0.0004    46    47    48     7
    48    0.3750    0.0000    0.0457    0.0083   90.0000    0.0000    0.0004    47    48    49     7
    49    0.3750    0.0000    0.0540    0.0083   90.0000    0.0000    0.0004    48    49     0     7
    50    0.4375    0.0000    0.0042    0.0083   90.0000    0.0000    0.0004     0    50    51     8
    51    0.4375    0.0000    0.0125    0.0083   90.0000    0.0000    0.0004    50    51    52     8
    52    0.4375    0.0000    0.0208    0.0083   90.0000    0.0000    0.0004    51    52    53     8
    53    0.4375    0.0000    0.0291    0.0083   90.0000    0.0000    0.0004    52    53    54     8
    54    0.4375    0.0000    0.0374    0.0083   90.0000    0.0000    0.0004    53    54    55     8
    55    0.4375    0.0000    0.0457    0.0083   90.0000    0.0000    0.0004    54    55    56     8
    56    0.4375    0.0000    0.0540    0.0083   90.0000    0.0000    0.0004    55    56     0     8



*****  DATA CARD N0.   1 EK   0     0     0     0 0.00000E+000 0.00000E+000 0.00000E+000 0.00000E+000 0.00000E+000 0.00000E+000
*****  DATA CARD N0.   2 EX   0     1     4     0 1.12194E-001 0.00000E+000 0.00000E+000 0.00000E+000 0.00000E+000 0.00000E+000
*****  DATA CARD N0.   3 EX   0     2     4     0 6.68071E-001 0.00000E+000 0.00000E+000 0.00000E+000 0.00000E+000 0.00000E+000
*****  DATA CARD N0.   4 EX   0     3     4     0 9.92048E-001 0.00000E+000 0.00000E+000 0.00000E+000 0.00000E+000 0.00000E+000
*****  DATA CARD N0.   5 EX   0     4     4     0 3.36641E-001 0.00000E+000 0.00000E+000 0.00000E+000 0.00000E+000 0.00000E+000
*****  DATA CARD N0.   6 EX   0     5     4     0 9.37495E-001 0.00000E+000 0.00000E+000 0.00000E+000 0.00000E+000 0.00000E+000
*****  DATA CARD N0.   7 EX   0     6     4     0 7.97879E-001 0.00000E+000 0.00000E+000 0.00000E+000 0.00000E+000 0.00000E+000
*****  DATA CARD N0.   8 EX   0     7     4     0 9.32083E-001 0.00000E+000 0.00000E+000 0.00000E+000 0.00000E+000 0.00000E+000
*****  DATA CARD N0.   9 EX   0     8     4     0 9.54021E-003 0.00000E+000 0.00000E+000 0.00000E+000 0.00000E+000 0.00000E+000
*****  DATA CARD N0.  10 GN  -1     0     0     0 0.00000E+000 0.00000E+000 0.00000E+000 0.00000E+000 0.00000E+000 0.00000E+000
*****  DATA CARD N0.  11 FR   0     1     0     0 2.40000E+003 0.00000E+000 0.00000E+000 0.00000E+000 0.00000E+000 0.00000E+000
*****  DATA CARD N0.  12 RP   0     1   361  1000 9.00000E+001 0.00000E+000 0.00000E+000 1.00000E+000 0.00000E+000 0.00000E+000


                               --------- FREQUENCY --------
                               FREQUENCY= 2.4000E+003 MHZ
                               WAVELENGTH=1.2491E-001 METERS


                        APPROXIMATE INTEGRATION EMPLOYED FOR SEGMENTS
                        THAT ARE MORE THAN 1.000 WAVELENGTHS APART
                        THE EXTENDED THIN WIRE KERNEL WILL BE USED



                          ------ STRUCTURE IMPEDANCE LOADING ------
                                 THIS STRUCTURE IS NOT LOADED



                            -------- ANTENNA ENVIRONMENT --------
                            FREE SPACE



                             ---------- MATRIX TIMING ----------
                               FILL= 5 msec  FACTOR: 0 msec


                      ----- ANTENNA INPUT PARAMETERS -----
  TAG   SEG       VOLTAGE (VOLTS)         CURRENT (AMPS)         IMPEDANCE (OHMS)        ADMITTANCE (MHOS)     POWER
  NO.   NO.     REAL      IMAGINARY     REAL      IMAGINARY     REAL      IMAGINARY    REAL       IMAGINARY   (WATTS)
   1     4  1.1219E-01  0.0000E+00  8.6295E-04  2.1294E-03  1.8340E+01 -4.5256E+01  7.6916E-03  1.8980E-02  4.8409E-05
   2    11  6.6807E-01  0.0000E+00  1.0178E-02  6.0360E-03  4.8561E+01 -2.8800E+01  1.5234E-02  9.0350E-03  3.3997E-03
   3    18  9.9205E-01  0.0000E+00  1.2335E-02  6.6493E-03  6.2318E+01 -3.3594E+01  1.2434E-02  6.7026E-03  6.1183E-03
   4    25  3.3664E-01  0.0000E+00  6.1483E-03  6.9300E-03  2.4116E+01 -2.7182E+01  1.8264E-02  2.0586E-02  1.0349E-03
   5    32  9.3749E-01  0.0000E+00  1.0934E-02  6.3175E-03  6.4282E+01 -3.7141E+01  1.1663E-02  6.7387E-03  5.1253E-03
   6    39  7.9788E-01  0.0000E+00  1.2930E-02  9.1777E-03  4.1034E+01 -2.9125E+01  1.6206E-02  1.1503E-02  5.1584E-03
   7    46  9.3208E-01  0.0000E+00  1.1081E-02  5.6255E-03  6.6879E+01 -3.3953E+01  1.1888E-02  6.0354E-03  5.1641E-03
   8    53  9.5402E-03  0.0000E+00  1.4979E-03  3.2468E-03  1.1177E+00 -2.4227E+00  1.5701E-01  3.4033E-01  7.1451E-06







                        ----- CURRENTS AND LOCATION -----
                            DISTANCES IN WAVELENGTHS 

   SEG  TAG    COORDINATES OF SEGM CENTER     SEGM    ------------- CURRENT (AMPS) -------------
   No:  No:       X         Y         Z      LENGTH     REAL      IMAGINARY    MAGN        PHASE
     1    1    0.0000    0.0000    0.0333   0.06655  2.4944E-04  5.4702E-04  6.0121E-04   65.487 
     2    1    0.0000    0.0000    0.0998   0.06655  5.8499E-04  1.3283E-03  1.4514E-03   66.231 
     3    1    0.0000    0.0000    0.1664   0.06655  7.9155E-04  1.8727E-03  2.0331E-03   67.087 
     4    1    0.0000    0.0000    0.2329   0.06655  8.6295E-04  2.1294E-03  2.2976E-03   67.939 
     5    1    0.0000    0.0000    0.2995   0.06655  7.9155E-04  1.8727E-03  2.0331E-03   67.087 
     6    1    0.0000    0.0000    0.3660   0.06655  5.8499E-04  1.3283E-03  1.4514E-03   66.231 
     7    1    0.0000    0.0000    0.4326   0.06655  2.4944E-04  5.4702E-04  6.0121E-04   65.487 
     8    2    0.5003    0.0000    0.0333   0.06655  2.8929E-03  1.3707E-03  3.2012E-03   25.353 
     9    2    0.5003    0.0000    0.0998   0.06655  6.8475E-03  3.4413E-03  7.6636E-03   26.682 
    10    2    0.5003    0.0000    0.1664   0.06655  9.3180E-03  5.0688E-03  1.0607E-02   28.545 
    11    2    0.5003    0.0000    0.2329   0.06655  1.0178E-02  6.0360E-03  1.1833E-02   30.671 
    12    2    0.5003    0.0000    0.2995   0.06655  9.3180E-03  5.0688E-03  1.0607E-02   28.545 
    13    2    0.5003    0.0000    0.3660   0.06655  6.8475E-03  3.4413E-03  7.6636E-03   26.682 
    14    2    0.5003    0.0000    0.4326   0.06655  2.8929E-03  1.3707E-03  3.2012E-03   25.353 
    15    3    1.0007    0.0000    0.0333   0.06655  3.5057E-03  1.3733E-03  3.7650E-03   21.392 
    16    3    1.0007    0.0000    0.0998   0.06655  8.2984E-03  3.5488E-03  9.0253E-03   23.154 
    17    3    1.0007    0.0000    0.1664   0.06655  1.1293E-02  5.4069E-03  1.2520E-02   25.585 
    18    3    1.0007    0.0000    0.2329   0.06655  1.2335E-02  6.6493E-03  1.4013E-02   28.328 
    19    3    1.0007    0.0000    0.2995   0.06655  1.1293E-02  5.4069E-03  1.2520E-02   25.585 
    20    3    1.0007    0.0000    0.3660   0.06655  8.2984E-03  3.5488E-03  9.0253E-03   23.154 
    21    3    1.0007    0.0000    0.4326   0.06655  3.5057E-03  1.3733E-03  3.7650E-03   21.392 
    22    4    1.5010    0.0000    0.0333   0.06655  1.7550E-03  1.7996E-03  2.5137E-03   45.718 
    23    4    1.5010    0.0000    0.0998   0.06655  4.1444E-03  4.3540E-03  6.0111E-03   46.413 
    24    4    1.5010    0.0000    0.1664   0.06655  5.6317E-03  6.1154E-03  8.3135E-03   47.358 
    25    4    1.5010    0.0000    0.2329   0.06655  6.1483E-03  6.9300E-03  9.2642E-03   48.420 
    26    4    1.5010    0.0000    0.2995   0.06655  5.6317E-03  6.1154E-03  8.3135E-03   47.358 
    27    4    1.5010    0.0000    0.3660   0.06655  4.1444E-03  4.3540E-03  6.0111E-03   46.413 
    28    4    1.5010    0.0000    0.4326   0.06655  1.7550E-03  1.7996E-03  2.5137E-03   45.718 
    29    5    2.0014    0.0000    0.0333   0.06655  3.1093E-03  1.3071E-03  3.3729E-03   22.801 
    30    5    2.0014    0.0000    0.0998   0.06655  7.3579E-03  3.3762E-03  8.0956E-03   24.648 
    31    5    2.0014    0.0000    0.1664   0.06655  1.0011E-02  5.1405E-03  1.1254E-02   27.180 
    32    5    2.0014    0.0000    0.2329   0.06655  1.0934E-02  6.3175E-03  1.2628E-02   30.019 
    33    5    2.0014    0.0000    0.2995   0.06655  1.0011E-02  5.1405E-03  1.1254E-02   27.180 
    34    5    2.0014    0.0000    0.3660   0.06655  7.3579E-03  3.3762E-03  8.0956E-03   24.648 
    35    5    2.0014    0.0000    0.4326   0.06655  3.1093E-03  1.3071E-03  3.3729E-03   22.801 
    36    6    2.5017    0.0000    0.0333   0.06655  3.6781E-03  2.1983E-03  4.2850E-03   30.865 
    37    6    2.5017    0.0000    0.0998   0.06655  8.7024E-03  5.4362E-03  1.0261E-02   31.992 
    38    6    2.5017    0.0000    0.1664   0.06655  1.1839E-02  7.8567E-03  1.4209E-02   33.569 
    39    6    2.5017    0.0000    0.2329   0.06655  1.2930E-02  9.1777E-03  1.5856E-02   35.367 
    40    6    2.5017    0.0000    0.2995   0.06655  1.1839E-02  7.8567E-03  1.4209E-02   33.569 
    41    6    2.5017    0.0000    0.3660   0.06655  8.7024E-03  5.4362E-03  1.0261E-02   31.992 
    42    6    2.5017    0.0000    0.4326   0.06655  3.6781E-03  2.1983E-03  4.2850E-03   30.865 
    43    7    3.0020    0.0000    0.0333   0.06655  3.1491E-03  1.1128E-03  3.3399E-03   19.462 
    44    7    3.0020    0.0000    0.0998   0.06655  7.4546E-03  2.9152E-03  8.0044E-03   21.358 
    45    7    3.0020    0.0000    0.1664   0.06655  1.0145E-02  4.5105E-03  1.1102E-02   23.971 
    46    7    3.0020    0.0000    0.2329   0.06655  1.1081E-02  5.6255E-03  1.2427E-02   26.916 
    47    7    3.0020    0.0000    0.2995   0.06655  1.0145E-02  4.5105E-03  1.1102E-02   23.971 
    48    7    3.0020    0.0000    0.3660   0.06655  7.4546E-03  2.9152E-03  8.0044E-03   21.358 
    49    7    3.0020    0.0000    0.4326   0.06655  3.1491E-03  1.1128E-03  3.3399E-03   19.462 
    50    8    3.5024    0.0000    0.0333   0.06655  4.3008E-04  9.2166E-04  1.0171E-03   64.984 
    51    8    3.5024    0.0000    0.0998   0.06655  1.0123E-03  2.1794E-03  2.4031E-03   65.085 
    52    8    3.5024    0.0000    0.1664   0.06655  1.3729E-03  2.9673E-03  3.2695E-03   65.171 
    53    8    3.5024    0.0000    0.2329   0.06655  1.4979E-03  3.2468E-03  3.5757E-03   65.234 
    54    8    3.5024    0.0000    0.2995   0.06655  1.3729E-03  2.9673E-03  3.2695E-03   65.171 
    55    8    3.5024    0.0000    0.3660   0.06655  1.0123E-03  2.1794E-03  2.4031E-03   65.085 
    56    8    3.5024    0.0000    0.4326   0.06655  4.3008E-04  9.2166E-04  1.0171E-03   64.984 






                               ---------- POWER BUDGET ---------
                               INPUT POWER   = 2.6056E-002 Watts
                               RADIATED POWER= 2.6056E-002 Watts
                               STRUCTURE LOSS= 0.0000E+000 Watts
                               NETWORK LOSS  = 0.0000E+000 Watts
                               EFFICIENCY    =  100.00 Percent


                         ----- RADIATION PATTERNS -----
 ---- ANGLES -----     ----- POWER GAINS -----       ---- POLARIZATION ----   ---- E(THETA) ----    ----- E(PHI) ------
  THETA      PHI       VERTC   HORIZ   TOTAL       AXIAL      TILT  SENSE   MAGNITUDE    PHASE    MAGNITUDE     PHASE
 DEGREES   DEGREES        DB       DB       DB       RATIO   DEGREES            VOLTS/M   DEGREES     VOLTS/M   DEGREES
   90.00      0.00     -9.36  -999.99    -9.36      0.0000      0.00 LINEAR  4.2569E-01     38.57  0.0000E+00      0.00
   90.00      1.00     -9.35  -999.99    -9.35      0.0000      0.00 LINEAR  4.2589E-01     38.42  0.0000E+00      0.00
   90.00      2.00     -9.34  -999.99    -9.34      0.0000      0.00 LINEAR  4.2650E-01     37.95  0.0000E+00      0.00
   90.00      3.00     -9.32  -999.99    -9.32      0.0000      0.00 LINEAR  4.2752E-01     37.17  0.0000E+00      0.00
   90.00      4.00     -9.29  -999.99    -9.29      0.0000      0.00 LINEAR  4.2896E-01     36.08  0.0000E+00      0.00
   90.00      5.00     -9.25  -999.99    -9.25      0.0000      0.00 LINEAR  4.3082E-01     34.68  0.0000E+00      0.00
   90.00      6.00     -9.21  -999.99    -9.21      0.0000      0.00 LINEAR  4.3312E-01     32.99  0.0000E+00      0.00
   90.00      7.00     -9.15  -999.99    -9.15      0.0000      0.00 LINEAR  4.3586E-01     31.01  0.0000E+00      0.00
   90.00      8.00     -9.09  -999.99    -9.09      0.0000      0.00 LINEAR  4.3904E-01     28.74  0.0000E+00      0.00
   90.00      9.00     -9.02  -999.99    -9.02      0.0000      0.00 LINEAR  4.4268E-01     26.19  0.0000E+00      0.00
   90.00     10.00     -8.94  -999.99    -8.94      0.0000      0.00 LINEAR  4.4678E-01     23.38  0.0000E+00      0.00
   90.00     11.00     -8.85  -999.99    -8.85      0.0000      0.00 LINEAR  4.5132E-01     20.32  0.0000E+00      0.00
