


                                __________________________________________
                               |                                          |
                               | NUMERICAL ELECTROMAGNETICS CODE (nec2++) |
                               | Translated to 'C++' in Double Precision  |
                               |        Version 1.5.4 [2014-12-06]        |
                               |__________________________________________|



                               ---------------- COMMENTS ----------------
                                forw: 90, 0 ; back: 0, 0
                               



                                -------- STRUCTURE SPECIFICATION --------
                                COORDINATES MUST BE INPUT IN
                                METERS OR BE SCALED TO METERS
                                BEFORE STRUCTURE INPUT IS ENDED
  WIRE                                                                                 SEG FIRST  LAST  TAG
   No:        X1         Y1         Z1         X2         Y2         Z2       RADIUS   No:   SEG   SEG  No:

     1      0.0000     0.0000     0.0000     0.0000     0.0000     0.0582     0.0004     7     1     7    1
     2      0.0625     0.0000     0.0000     0.0625     0.0000     0.0582     0.0004     7     8    14    2
     3      0.1250     0.0000     0.0000     0.1250     0.0000     0.0582     0.0004     7    15    21    3
     4      0.1875     0.0000     0.0000     0.1875     0.0000     0.0582     0.0004     7    22    28    4
     5      0.2500     0.0000     0.0000     0.2500     0.0000     0.0582     0.0004     7    29    35    5
     6      0.3125     0.0000     0.0000     0.3125     0.0000     0.0582     0.0004     7    36    42    6
     7      0.3750     0.0000     0.0000     0.3750     0.0000     0.0582     0.0004     7    43    49    7
     8      0.4375     0.0000     0.0000     0.4375     0.0000     0.0582     0.0004     7    50    56    8

     TOTAL SEGMENTS USED: 56   SEGMENTS IN A SYMMETRIC CELL: 56   SYMMETRY FLAG: 0


                               ---------- SEGMENTATION DATA ----------
                                        COORDINATES IN METERS
                            I+ AND I- INDICATE THE SEGMENTS BEFORE AND AFTER I

   SEG    COORDINATES OF SEGM CENTER     SEGM    ORIENTATION ANGLES    WIRE    CONNECTION DATA   TAG
   No:       X         Y         Z      LENGTH     ALPHA      BETA    RADIUS    I-     I    I+   NO:
     1    0.0000    0.0000    0.0042    0.0083   90.0000    0.0000    0.0004     0     1     2     1
     2    0.0000    0.0000    0.0125    0.0083   90.0000    0.0000    0.0004     1     2     3     1
     3    0.0000    0.0000    0.0208    0.0083   90.0000    0.0000    0.0004     2     3     4     1
     4    0.0000    0.0000    0.0291    0.0083   90.0000    0.0000    0.0004     3     4     5     1
     5    0.0000    0.0000    0.0374    0.0083   90.0000    0.0000    0.0004     4     5     6     1
     6    0.0000    0.0000    0.0457    0.0083   90.0000    0.0000    0.0004     5     6     7     1
     7    0.0000    0.0000    0.0540    0.0083   90.0000    0.0000    0.0004     6     7     0     1
     8    0.0625    0.0000    0.0042    0.0083   90.0000    0.0000    0.0004     0     8     9     2
     9    0.0625    0.0000    0.0125    0.0083   90.0000    0.0000    0.0004     8     9    10     2
    10    0.0625    0.0000    0.0208    0.0083   90.0000    0.0000    0.0004     9    10    11     2
    11    0.0625    0.0000    0.0291    0.0083   90.0000    0.0000    0.0004    10    11    12     2
    12    0.0625    0.0000    0.0374    0.0083   90.0000    0.0000    0.0004    11    12    13     2
    13    0.0625    0.0000    0.0457    0.0083   90.0000    0.0000    0.0004    12    13    14     2
    14    0.0625    0.0000    0.0540    0.0083   90.0000    0.0000    0.0004    13    14     0     2
    15    0.1250    0.0000    0.0042    0.0083   90.0000    0.0000    0.0004     0    15    16     3
    16    0.1250    0.0000    0.0125    0.0083   90.0000    0.0000    0.0004    15    16    17     3
    17    0.1250    0.0000    0.0208    0.0083   90.0000    0.0000    0.0004    16    17    18     3
    18    0.1250    0.0000    0.0291    0.0083   90.0000    0.0000    0.0004    17    18    19     3
    19    0.1250    0.0000    0.0374    0.0083   90.0000    0.0000    0.0004    18    19    20     3
    20    0.1250    0.0000    0.0457    0.0083   90.0000    0.0000    0.0004    19    20    21     3
    21    0.1250    0.0000    0.0540    0.0083   90.0000    0.0000    0.0004    20    21     0     3
    22    0.1875    0.0000    0.0042    0.0083   90.0000    0.0000    0.0004     0    22    23     4
    23    0.1875    0.0000    0.0125    0.0083   90.0000    0.0000    0.0004    22    23    24     4
    24    0.1875    0.0000    0.0208    0.0083   90.0000    0.0000    0.0004    23    24    25     4
    25    0.1875    0.0000    0.0291    0.0083   90.0000    0.0000    0.0004    24    25    26     4
    26    0.1875    0.0000    0.0374    0.0083   90.0000    0.0000    0.0004    25    26    27     4
    27    0.1875    0.0000    0.0457    0.0083   90.0000    0.0000    0.0004    26    27    28     4
    28    0.1875    0.0000    0.0540    0.0083   90.0000    0.0000    0.0004    27    28     0     4
    29    0.2500    0.0000    0.0042    0.0083   90.0000    0.0000    0.0004     0    29    30     5
    30    0.2500    0.0000    0.0125    0.0083   90.0000    0.0000    0.0004    29    30    31     5
    31    0.2500    0.0000    0.0208    0.0083   90.0000    0.0000    0.0004    30    31    32     5
    32    0.2500    0.0000    0.0291    0.0083   90.0000    0.0000    0.0004    31    32    33     5
    33    0.2500    0.0000    0.0374    0.0083   90.0000    0.0000    0.0004    32    33    34     5
    34    0.2500    0.0000    0.0457    0.0083   90.0000    0.0000    0.0004    33    34    35     5
    35    0.2500    0.0000    0.0540    0.0083   90.0000    0.0000    0.0004    34    35     0     5
    36    0.3125    0.0000    0.0042    0.0083   90.0000    0.0000    0.0004     0    36    37     6
    37    0.3125    0.0000    0.0125    0.0083   90.0000    0.0000    0.0004    36    37    38     6
    38    0.3125    0.0000    0.0208    0.0083   90.0000    0.0000    0.0004    37    38    39     6
    39    0.3125    0.0000    0.0291    0.0083   90.0000    0.0000    0.0004    38    39    40     6
    40    0.3125    0.0000    0.0374    0.0083   90.0000    0.0000    0.0004    39    40    41     6
    41    0.3125    0.0000    0.0457    0.0083   90.0000    0.0000    0.0004    40    41    42     6
    42    0.3125    0.0000    0.0540    0.0083   90.0000    0.0000    0.0004    41    42     0     6
    43    0.3750    0.0000    0.0042    0.0083   90.0000    0.0000    0.0004     0    43    44     7
    44    0.3750    0.0000    0.0125    0.0083   90.0000    0.0000    0.0004    43    44    45     7
    45    0.3750    0.0000    0.0208    0.0083   90.0000    0.0000    0.0004    44    45    46     7
    46    0.3750    0.0000    0.0291    0.0083   90.0000    0.0000    0.0004    45    46    47     7
    47    0.3750    0.0000    0.0374    0.0083   90.0000    0.0000    0.0004    46    47    48     7
    48    0.3750    0.0000    0.0457    0.0083   90.0000    0.0000    0.0004    47    48    49     7
    49    0.3750    0.0000    0.0540    0.0083   90.0000    0.0000    0.0004    48    49     0     7
    50    0.4375    0.0000    0.0042    0.0083   90.0000    0.0000    0.0004     0    50    51     8
    51    0.4375    0.0000    0.0125    0.0083   90.0000    0.0000    0.0004    50    51    52     8
    52    0.4375    0.0000    0.0208    0.0083   90.0000    0.0000    0.0004    51    52    53     8
    53    0.4375    0.0000    0.0291    0.0083   90.0000    0.0000    0.0004    52    53    54     8
    54    0.4375    0.0000    0.0374    0.0083   90.0000    0.0000    0.0004    53    54    55     8
    55    0.4375    0.0000    0.0457    0.0083   90.0000    0.0000    0.0004    54    55    56     8
    56    0.4375    0.0000    0.0540    0.0083   90.0000    0.0000    0.0004    55    56     0     8



*****  DATA CARD N0.   1 EK   0     0     0     0 0.00000E+000 0.00000E+000 0.00000E+000 0.00000E+000 0.00000E+000 0.00000E+000
*****  DATA CARD N0.   2 EX   0     1     4     0 1.00000E+000 0.00000E+000 0.00000E+000 0.00000E+000 0.00000E+000 0.00000E+000
*****  DATA CARD N0.   3 EX   0     2     4     0 1.00000E+000 0.00000E+000 0.00000E+000 0.00000E+000 0.00000E+000 0.00000E+000
*****  DATA CARD N0.   4 EX   0     3     4     0 1.00000E+000 0.00000E+000 0.00000E+000 0.00000E+000 0.00000E+000 0.00000E+000
*****  DATA CARD N0.   5 EX   0     4     4     0 1.00000E+000 0.00000E+000 0.00000E+000 0.00000E+000 0.00000E+000 0.00000E+000
*****  DATA CARD N0.   6 EX   0     5     4     0 1.00000E+000 0.00000E+000 0.00000E+000 0.00000E+000 0.00000E+000 0.00000E+000
*****  DATA CARD N0.   7 EX   0     6     4     0 1.00000E+000 0.00000E+000 0.00000E+000 0.00000E+000 0.00000E+000 0.00000E+000
*****  DATA CARD N0.   8 EX   0     7     4     0 1.00000E+000 0.00000E+000 0.00000E+000 0.00000E+000 0.00000E+000 0.00000E+000
*****  DATA CARD N0.   9 EX   0     8     4     0 1.00000E+000 0.00000E+000 0.00000E+000 0.00000E+000 0.00000E+000 0.00000E+000
*****  DATA CARD N0.  10 GN  -1     0     0     0 0.00000E+000 0.00000E+000 0.00000E+000 0.00000E+000 0.00000E+000 0.00000E+000
*****  DATA CARD N0.  11 FR   0     1     0     0 2.40000E+003 0.00000E+000 0.00000E+000 0.00000E+000 0.00000E+000 0.00000E+000
*****  DATA CARD N0.  12 RP   0     1   361  1000 9.00000E+001 0.00000E+000 0.00000E+000 1.00000E+000 0.00000E+000 0.00000E+000


                               --------- FREQUENCY --------
                               FREQUENCY= 2.4000E+003 MHZ
                               WAVELENGTH=1.2491E-001 METERS


                        APPROXIMATE INTEGRATION EMPLOYED FOR SEGMENTS
                        THAT ARE MORE THAN 1.000 WAVELENGTHS APART
                        THE EXTENDED THIN WIRE KERNEL WILL BE USED



                          ------ STRUCTURE IMPEDANCE LOADING ------
                                 THIS STRUCTURE IS NOT LOADED



                            -------- ANTENNA ENVIRONMENT --------
                            FREE SPACE



                             ---------- MATRIX TIMING ----------
                               FILL= 0 msec  FACTOR: 0 msec


                      ----- ANTENNA INPUT PARAMETERS -----
  TAG   SEG       VOLTAGE (VOLTS)         CURRENT (AMPS)         IMPEDANCE (OHMS)        ADMITTANCE (MHOS)     POWER
  NO.   NO.     REAL      IMAGINARY     REAL      IMAGINARY     REAL      IMAGINARY    REAL       IMAGINARY   (WATTS)
   1     4  1.0000E+00  0.0000E+00  1.3673E-02  5.6964E-03  6.2319E+01 -2.5963E+01  1.3673E-02  5.6964E-03  6.8367E-03
   2    11  1.0000E+00  0.0000E+00  1.4422E-02  1.0485E-02  4.5361E+01 -3.2980E+01  1.4422E-02  1.0485E-02  7.2110E-03
   3    18  1.0000E+00  0.0000E+00  1.3233E-02  9.2110E-03  5.0905E+01 -3.5434E+01  1.3233E-02  9.2110E-03  6.6163E-03
   4    25  1.0000E+00  0.0000E+00  1.3765E-02  9.5385E-03  4.9080E+01 -3.4009E+01  1.3765E-02  9.5385E-03  6.8827E-03
   5    32  1.0000E+00  0.0000E+00  1.3765E-02  9.5385E-03  4.9080E+01 -3.4009E+01  1.3765E-02  9.5385E-03  6.8827E-03
   6    39  1.0000E+00  0.0000E+00  1.3233E-02  9.2110E-03  5.0905E+01 -3.5434E+01  1.3233E-02  9.2110E-03  6.6163E-03
   7    46  1.0000E+00  0.0000E+00  1.4422E-02  1.0485E-02  4.5361E+01 -3.2980E+01  1.4422E-02  1.0485E-02  7.2110E-03
   8    53  1.0000E+00  0.0000E+00  1.3673E-02  5.6964E-03  6.2319E+01 -2.5963E+01  1.3673E-02  5.6964E-03  6.8367E-03







                        ----- CURRENTS AND LOCATION -----
                            DISTANCES IN WAVELENGTHS 

   SEG  TAG    COORDINATES OF SEGM CENTER     SEGM    ------------- CURRENT (AMPS) -------------
   No:  No:       X         Y         Z      LENGTH     REAL      IMAGINARY    MAGN        PHASE
     1    1    0.0000    0.0000    0.0333   0.06655  3.8858E-03  1.0978E-03  4.0379E-03   15.775 
     2    1    0.0000    0.0000    0.0998   0.06655  9.1987E-03  2.8997E-03  9.6449E-03   17.497 
     3    1    0.0000    0.0000    0.1664   0.06655  1.2518E-02  4.5289E-03  1.3312E-02   19.889 
     4    1    0.0000    0.0000    0.2329   0.06655  1.3673E-02  5.6964E-03  1.4812E-02   22.617 
     5    1    0.0000    0.0000    0.2995   0.06655  1.2518E-02  4.5289E-03  1.3312E-02   19.889 
     6    1    0.0000    0.0000    0.3660   0.06655  9.1987E-03  2.8997E-03  9.6449E-03   17.497 
     7    1    0.0000    0.0000    0.4326   0.06655  3.8858E-03  1.0978E-03  4.0379E-03   15.775 
     8    2    0.5003    0.0000    0.0333   0.06655  4.1024E-03  2.4632E-03  4.7850E-03   30.982 
     9    2    0.5003    0.0000    0.0998   0.06655  9.7063E-03  6.1261E-03  1.1478E-02   32.258 
    10    2    0.5003    0.0000    0.1664   0.06655  1.3205E-02  8.9149E-03  1.5933E-02   34.024 
    11    2    0.5003    0.0000    0.2329   0.06655  1.4422E-02  1.0485E-02  1.7831E-02   36.019 
    12    2    0.5003    0.0000    0.2995   0.06655  1.3205E-02  8.9149E-03  1.5933E-02   34.024 
    13    2    0.5003    0.0000    0.3660   0.06655  9.7063E-03  6.1261E-03  1.1478E-02   32.258 
    14    2    0.5003    0.0000    0.4326   0.06655  4.1024E-03  2.4632E-03  4.7850E-03   30.982 
    15    3    1.0007    0.0000    0.0333   0.06655  3.7662E-03  2.1004E-03  4.3123E-03   29.148 
    16    3    1.0007    0.0000    0.0998   0.06655  8.9082E-03  5.2681E-03  1.0349E-02   30.599 
    17    3    1.0007    0.0000    0.1664   0.06655  1.2117E-02  7.7479E-03  1.4382E-02   32.596 
    18    3    1.0007    0.0000    0.2329   0.06655  1.3233E-02  9.2110E-03  1.6123E-02   34.841 
    19    3    1.0007    0.0000    0.2995   0.06655  1.2117E-02  7.7479E-03  1.4382E-02   32.596 
    20    3    1.0007    0.0000    0.3660   0.06655  8.9082E-03  5.2681E-03  1.0349E-02   30.599 
    21    3    1.0007    0.0000    0.4326   0.06655  3.7662E-03  2.1004E-03  4.3123E-03   29.148 
    22    4    1.5010    0.0000    0.0333   0.06655  3.9167E-03  2.1937E-03  4.4892E-03   29.253 
    23    4    1.5010    0.0000    0.0998   0.06655  9.2656E-03  5.4887E-03  1.0769E-02   30.641 
    24    4    1.5010    0.0000    0.1664   0.06655  1.2604E-02  8.0478E-03  1.4954E-02   32.558 
    25    4    1.5010    0.0000    0.2329   0.06655  1.3765E-02  9.5385E-03  1.6747E-02   34.719 
    26    4    1.5010    0.0000    0.2995   0.06655  1.2604E-02  8.0478E-03  1.4954E-02   32.558 
    27    4    1.5010    0.0000    0.3660   0.06655  9.2656E-03  5.4887E-03  1.0769E-02   30.641 
    28    4    1.5010    0.0000    0.4326   0.06655  3.9167E-03  2.1937E-03  4.4892E-03   29.253 
    29    5    2.0014    0.0000    0.0333   0.06655  3.9167E-03  2.1937E-03  4.4892E-03   29.253 
    30    5    2.0014    0.0000    0.0998   0.06655  9.2656E-03  5.4887E-03  1.0769E-02   30.641 
    31    5    2.0014    0.0000    0.1664   0.06655  1.2604E-02  8.0478E-03  1.4954E-02   32.558 
    32    5    2.0014    0.0000    0.2329   0.06655  1.3765E-02  9.5385E-03  1.6747E-02   34.719 
    33    5    2.0014    0.0000    0.2995   0.06655  1.2604E-02  8.0478E-03  1.4954E-02   32.558 
    34    5    2.0014    0.0000    0.3660   0.06655  9.2656E-03  5.4887E-03  1.0769E-02   30.641 
    35    5    2.0014    0.0000    0.4326   0.06655  3.9167E-03  2.1937E-03  4.4892E-03   29.253 
    36    6    2.5017    0.0000    0.0333   0.06655  3.7662E-03  2.1004E-03  4.3123E-03   29.148 
    37    6    2.5017    0.0000    0.0998   0.06655  8.9082E-03  5.2681E-03  1.0349E-02   30.599 
    38    6    2.5017    0.0000    0.1664   0.06655  1.2117E-02  7.7479E-03  1.4382E-02   32.596 
    39    6    2.5017    0.0000    0.2329   0.06655  1.3233E-02  9.2110E-03  1.6123E-02   34.841 
    40    6    2.5017    0.0000    0.2995   0.06655  1.2117E-02  7.7479E-03  1.4382E-02   32.596 
    41    6    2.5017    0.0000    0.3660   0.06655  8.9082E-03  5.2681E-03  1.0349E-02   30.599 
    42    6    2.5017    0.0000    0.4326   0.06655  3.7662E-03  2.1004E-03  4.3123E-03   29.148 
    43    7    3.0020    0.0000    0.0333   0.06655  4.1024E-03  2.4632E-03  4.7850E-03   30.982 
    44    7    3.0020    0.0000    0.0998   0.06655  9.7063E-03  6.1261E-03  1.1478E-02   32.258 
    45    7    3.0020    0.0000    0.1664   0.06655  1.3205E-02  8.9149E-03  1.5933E-02   34.024 
    46    7    3.0020    0.0000    0.2329   0.06655  1.4422E-02  1.0485E-02  1.7831E-02   36.019 
    47    7    3.0020    0.0000    0.2995   0.06655  1.3205E-02  8.9149E-03  1.5933E-02   34.024 
    48    7    3.0020    0.0000    0.3660   0.06655  9.7063E-03  6.1261E-03  1.1478E-02   32.258 
    49    7    3.0020    0.0000    0.4326   0.06655  4.1024E-03  2.4632E-03  4.7850E-03   30.982 
    50    8    3.5024    0.0000    0.0333   0.06655  3.8858E-03  1.0978E-03  4.0379E-03   15.775 
    51    8    3.5024    0.0000    0.0998   0.06655  9.1987E-03  2.8997E-03  9.6449E-03   17.497 
    52    8    3.5024    0.0000    0.1664   0.06655  1.2518E-02  4.5289E-03  1.3312E-02   19.889 
    53    8    3.5024    0.0000    0.2329   0.06655  1.3673E-02  5.6964E-03  1.4812E-02   22.617 
    54    8    3.5024    0.0000    0.2995   0.06655  1.2518E-02  4.5289E-03  1.3312E-02   19.889 
    55    8    3.5024    0.0000    0.3660   0.06655  9.1987E-03  2.8997E-03  9.6449E-03   17.497 
    56    8    3.5024    0.0000    0.4326   0.06655  3.8858E-03  1.0978E-03  4.0379E-03   15.775 






                               ---------- POWER BUDGET ---------
                               INPUT POWER   = 5.5093E-002 Watts
                               RADIATED POWER= 5.5093E-002 Watts
                               STRUCTURE LOSS= 0.0000E+000 Watts
                               NETWORK LOSS  = 0.0000E+000 Watts
                               EFFICIENCY    =  100.00 Percent


                         ----- RADIATION PATTERNS -----
 ---- ANGLES -----     ----- POWER GAINS -----       ---- POLARIZATION ----   ---- E(THETA) ----    ----- E(PHI) ------
  THETA      PHI       VERTC   HORIZ   TOTAL       AXIAL      TILT  SENSE   MAGNITUDE    PHASE    MAGNITUDE     PHASE
 DEGREES   DEGREES        DB       DB       DB       RATIO   DEGREES            VOLTS/M   DEGREES     VOLTS/M   DEGREES
   90.00      0.00    -49.27  -999.99   -49.27      0.0000      0.00 LINEAR  6.2489E-03      2.70  0.0000E+00      0.00
   90.00      1.00    -51.47  -999.99   -51.47      0.0000      0.00 LINEAR  4.8518E-03      2.61  0.0000E+00      0.00
   90.00      2.00    -68.79  -999.99   -68.79      0.0000      0.00 LINEAR  6.6080E-04      2.32  0.0000E+00      0.00
   90.00      3.00    -49.17  -999.99   -49.17      0.0000      0.00 LINEAR  6.3227E-03   -178.16  0.0000E+00      0.00
   90.00      4.00    -41.06  -999.99   -41.06      0.0000      0.00 LINEAR  1.6095E-02   -178.83  0.0000E+00      0.00
   90.00      5.00    -36.05  -999.99   -36.05      0.0000      0.00 LINEAR  2.8651E-02   -179.70  0.0000E+00      0.00
   90.00      6.00    -32.33  -999.99   -32.33      0.0000      0.00 LINEAR  4.3976E-02    179.24  0.0000E+00      0.00
   90.00      7.00    -29.33  -999.99   -29.33      0.0000      0.00 LINEAR  6.2051E-02    177.99  0.0000E+00      0.00
   90.00      8.00    -26.82  -999.99   -26.82      0.0000      0.00 LINEAR  8.2842E-02    176.55  0.0000E+00      0.00
   90.00      9.00    -24.66  -999.99   -24.66      0.0000      0.00 LINEAR  1.0630E-01    174.91  0.0000E+00      0.00
   90.00     10.00    -22.75  -999.99   -22.75      0.0000      0.00 LINEAR  1.3236E-01    173.07  0.0000E+00      0.00
   90.00     11.00    -21.06  -999.99   -21.06      0.0000      0.00 LINEAR  1.6092E-01    171.04  0.0000E+00      0.00
