


                                __________________________________________
                               |                                          |
                               | NUMERICAL ELECTROMAGNETICS CODE (nec2++) |
                               | Translated to 'C++' in Double Precision  |
                               |        Version 1.5.4 [2014-12-06]        |
                               |__________________________________________|



                               ---------------- COMMENTS ----------------
                                forw: 90, 0 ; back: 0, 0
                               



                                -------- STRUCTURE SPECIFICATION --------
                                COORDINATES MUST BE INPUT IN
                                METERS OR BE SCALED TO METERS
                                BEFORE STRUCTURE INPUT IS ENDED
  WIRE                                                                                 SEG FIRST  LAST  TAG
   No:        X1         Y1         Z1         X2         Y2         Z2       RADIUS   No:   SEG   SEG  No:

     1      0.0000     0.0000     0.0000     0.0000     0.0000     0.0582     0.0004     7     1     7    1
     2      0.0625     0.0000     0.0000     0.0625     0.0000     0.0582     0.0004     7     8    14    2
     3      0.1250     0.0000     0.0000     0.1250     0.0000     0.0582     0.0004     7    15    21    3
     4      0.1875     0.0000     0.0000     0.1875     0.0000     0.0582     0.0004     7    22    28    4
     5      0.2500     0.0000     0.0000     0.2500     0.0000     0.0582     0.0004     7    29    35    5
     6      0.3125     0.0000     0.0000     0.3125     0.0000     0.0582     0.0004     7    36    42    6
     7      0.3750     0.0000     0.0000     0.3750     0.0000     0.0582     0.0004     7    43    49    7
     8      0.4375     0.0000     0.0000     0.4375     0.0000     0.0582     0.0004     7    50    56    8

     TOTAL SEGMENTS USED: 56   SEGMENTS IN A SYMMETRIC CELL: 56   SYMMETRY FLAG: 0


                               ---------- SEGMENTATION DATA ----------
                                        COORDINATES IN METERS
                            I+ AND I- INDICATE THE SEGMENTS BEFORE AND AFTER I

   SEG    COORDINATES OF SEGM CENTER     SEGM    ORIENTATION ANGLES    WIRE    CONNECTION DATA   TAG
   No:       X         Y         Z      LENGTH     ALPHA      BETA    RADIUS    I-     I    I+   NO:
     1    0.0000    0.0000    0.0042    0.0083   90.0000    0.0000    0.0004     0     1     2     1
     2    0.0000    0.0000    0.0125    0.0083   90.0000    0.0000    0.0004     1     2     3     1
     3    0.0000    0.0000    0.0208    0.0083   90.0000    0.0000    0.0004     2     3     4     1
     4    0.0000    0.0000    0.0291    0.0083   90.0000    0.0000    0.0004     3     4     5     1
     5    0.0000    0.0000    0.0374    0.0083   90.0000    0.0000    0.0004     4     5     6     1
     6    0.0000    0.0000    0.0457    0.0083   90.0000    0.0000    0.0004     5     6     7     1
     7    0.0000    0.0000    0.0540    0.0083   90.0000    0.0000    0.0004     6     7     0     1
     8    0.0625    0.0000    0.0042    0.0083   90.0000    0.0000    0.0004     0     8     9     2
     9    0.0625    0.0000    0.0125    0.0083   90.0000    0.0000    0.0004     8     9    10     2
    10    0.0625    0.0000    0.0208    0.0083   90.0000    0.0000    0.0004     9    10    11     2
    11    0.0625    0.0000    0.0291    0.0083   90.0000    0.0000    0.0004    10    11    12     2
    12    0.0625    0.0000    0.0374    0.0083   90.0000    0.0000    0.0004    11    12    13     2
    13    0.0625    0.0000    0.0457    0.0083   90.0000    0.0000    0.0004    12    13    14     2
    14    0.0625    0.0000    0.0540    0.0083   90.0000    0.0000    0.0004    13    14     0     2
    15    0.1250    0.0000    0.0042    0.0083   90.0000    0.0000    0.0004     0    15    16     3
    16    0.1250    0.0000    0.0125    0.0083   90.0000    0.0000    0.0004    15    16    17     3
    17    0.1250    0.0000    0.0208    0.0083   90.0000    0.0000    0.0004    16    17    18     3
    18    0.1250    0.0000    0.0291    0.0083   90.0000    0.0000    0.0004    17    18    19     3
    19    0.1250    0.0000    0.0374    0.0083   90.0000    0.0000    0.0004    18    19    20     3
    20    0.1250    0.0000    0.0457    0.0083   90.0000    0.0000    0.0004    19    20    21     3
    21    0.1250    0.0000    0.0540    0.0083   90.0000    0.0000    0.0004    20    21     0     3
    22    0.1875    0.0000    0.0042    0.0083   90.0000    0.0000    0.0004     0    22    23     4
    23    0.1875    0.0000    0.0125    0.0083   90.0000    0.0000    0.0004    22    23    24     4
    24    0.1875    0.0000    0.0208    0.0083   90.0000    0.0000    0.0004    23    24    25     4
    25    0.1875    0.0000    0.0291    0.0083   90.0000    0.0000    0.0004    24    25    26     4
    26    0.1875    0.0000    0.0374    0.0083   90.0000    0.0000    0.0004    25    26    27     4
    27    0.1875    0.0000    0.0457    0.0083   90.0000    0.0000    0.0004    26    27    28     4
    28    0.1875    0.0000    0.0540    0.0083   90.0000    0.0000    0.0004    27    28     0     4
    29    0.2500    0.0000    0.0042    0.0083   90.0000    0.0000    0.0004     0    29    30     5
    30    0.2500    0.0000    0.0125    0.0083   90.0000    0.0000    0.0004    29    30    31     5
    31    0.2500    0.0000    0.0208    0.0083   90.0000    0.0000    0.0004    30    31    32     5
    32    0.2500    0.0000    0.0291    0.0083   90.0000    0.0000    0.0004    31    32    33     5
    33    0.2500    0.0000    0.0374    0.0083   90.0000    0.0000    0.0004    32    33    34     5
    34    0.2500    0.0000    0.0457    0.0083   90.0000    0.0000    0.0004    33    34    35     5
    35    0.2500    0.0000    0.0540    0.0083   90.0000    0.0000    0.0004    34    35     0     5
    36    0.3125    0.0000    0.0042    0.0083   90.0000    0.0000    0.0004     0    36    37     6
    37    0.3125    0.0000    0.0125    0.0083   90.0000    0.0000    0.0004    36    37    38     6
    38    0.3125    0.0000    0.0208    0.0083   90.0000    0.0000    0.0004    37    38    39     6
    39    0.3125    0.0000    0.0291    0.0083   90.0000    0.0000    0.0004    38    39    40     6
    40    0.3125    0.0000    0.0374    0.0083   90.0000    0.0000    0.0004    39    40    41     6
    41    0.3125    0.0000    0.0457    0.0083   90.0000    0.0000    0.0004    40    41    42     6
    42    0.3125    0.0000    0.0540    0.0083   90.0000    0.0000    0.0004    41    42     0     6
    43    0.3750    0.0000    0.0042    0.0083   90.0000    0.0000    0.0004     0    43    44     7
    44    0.3750    0.0000    0.0125    0.0083   90.0000    0.0000    0.0004    43    44    45     7
    45    0.3750    0.0000    0.0208    0.0083   90.0000    0.0000    0.0004    44    45    46     7
    46    0.3750    0.0000    0.0291    0.0083   90.0000    0.0000    0.0004    45    46    47     7
    47    0.3750    0.0000    0.0374    0.0083   90.0000    0.0000    0.0004    46    47    48     7
    48    0.3750    0.0000    0.0457    0.0083   90.0000    0.0000    0.0004    47    48    49     7
    49    0.3750    0.0000    0.0540    0.0083   90.0000    0.0000    0.0004    48    49     0     7
    50    0.4375    0.0000    0.0042    0.0083   90.0000    0.0000    0.0004     0    50    51     8
    51    0.4375    0.0000    0.0125    0.0083   90.0000    0.0000    0.0004    50    51    52     8
    52    0.4375    0.0000    0.0208    0.0083   90.0000    0.0000    0.0004    51    52    53     8
    53    0.4375    0.0000    0.0291    0.0083   90.0000    0.0000    0.0004    52    53    54     8
    54    0.4375    0.0000    0.0374    0.0083   90.0000    0.0000    0.0004    53    54    55     8
    55    0.4375    0.0000    0.0457    0.0083   90.0000    0.0000    0.0004    54    55    56     8
    56    0.4375    0.0000    0.0540    0.0083   90.0000    0.0000    0.0004    55    56     0     8



*****  DATA CARD N0.   1 EK   0     0     0     0 0.00000E+000 0.00000E+000 0.00000E+000 0.00000E+000 0.00000E+000 0.00000E+000
*****  DATA CARD N0.   2 EX   0     1     4     0 6.02247E-001 0.00000E+000 0.00000E+000 0.00000E+000 0.00000E+000 0.00000E+000
*****  DATA CARD N0.   3 EX   0     2     4     0 5.14147E-001 0.00000E+000 0.00000E+000 0.00000E+000 0.00000E+000 0.00000E+000
*****  DATA CARD N0.   4 EX   0     3     4     0 7.35904E-001 0.00000E+000 0.00000E+000 0.00000E+000 0.00000E+000 0.00000E+000
*****  DATA CARD N0.   5 EX   0     4     4     0 8.85496E-001 0.00000E+000 0.00000E+000 0.00000E+000 0.00000E+000 0.00000E+000
*****  DATA CARD N0.   6 EX   0     5     4     0 8.52255E-001 0.00000E+000 0.00000E+000 0.00000E+000 0.00000E+000 0.00000E+000
*****  DATA CARD N0.   7 EX   0     6     4     0 7.58657E-001 0.00000E+000 0.00000E+000 0.00000E+000 0.00000E+000 0.00000E+000
*****  DATA CARD N0.   8 EX   0     7     4     0 4.96800E-001 0.00000E+000 0.00000E+000 0.00000E+000 0.00000E+000 0.00000E+000
*****  DATA CARD N0.   9 EX   0     8     4     0 4.79589E-001 0.00000E+000 0.00000E+000 0.00000E+000 0.00000E+000 0.00000E+000
*****  DATA CARD N0.  10 GN  -1     0     0     0 0.00000E+000 0.00000E+000 0.00000E+000 0.00000E+000 0.00000E+000 0.00000E+000
*****  DATA CARD N0.  11 FR   0     1     0     0 2.40000E+003 0.00000E+000 0.00000E+000 0.00000E+000 0.00000E+000 0.00000E+000
*****  DATA CARD N0.  12 RP   0     1   361  1000 9.00000E+001 0.00000E+000 0.00000E+000 1.00000E+000 0.00000E+000 0.00000E+000


                               --------- FREQUENCY --------
                               FREQUENCY= 2.4000E+003 MHZ
                               WAVELENGTH=1.2491E-001 METERS


                        APPROXIMATE INTEGRATION EMPLOYED FOR SEGMENTS
                        THAT ARE MORE THAN 1.000 WAVELENGTHS APART
                        THE EXTENDED THIN WIRE KERNEL WILL BE USED



                          ------ STRUCTURE IMPEDANCE LOADING ------
                                 THIS STRUCTURE IS NOT LOADED



                            -------- ANTENNA ENVIRONMENT --------
                            FREE SPACE



                             ---------- MATRIX TIMING ----------
                               FILL= 3 msec  FACTOR: 0 msec


                      ----- ANTENNA INPUT PARAMETERS -----
  TAG   SEG       VOLTAGE (VOLTS)         CURRENT (AMPS)         IMPEDANCE (OHMS)        ADMITTANCE (MHOS)     POWER
  NO.   NO.     REAL      IMAGINARY     REAL      IMAGINARY     REAL      IMAGINARY    REAL       IMAGINARY   (WATTS)
   1     4  6.0225E-01  0.0000E+00  8.0378E-03  2.9903E-03  6.5817E+01 -2.4486E+01  1.3346E-02  4.9653E-03  2.4204E-03
   2    11  5.1415E-01  0.0000E+00  7.5987E-03  6.3193E-03  3.9999E+01 -3.3264E+01  1.4779E-02  1.2291E-02  1.9534E-03
   3    18  7.3590E-01  0.0000E+00  9.6744E-03  6.5546E-03  5.2135E+01 -3.5323E+01  1.3146E-02  8.9069E-03  3.5597E-03
   4    25  8.8550E-01  0.0000E+00  1.2251E-02  8.0724E-03  5.0398E+01 -3.3207E+01  1.3835E-02  9.1162E-03  5.4242E-03
   5    32  8.5226E-01  0.0000E+00  1.1834E-02  8.1307E-03  4.8922E+01 -3.3612E+01  1.3886E-02  9.5403E-03  5.0430E-03
   6    39  7.5866E-01  0.0000E+00  1.0030E-02  6.5612E-03  5.2971E+01 -3.4651E+01  1.3221E-02  8.6484E-03  3.8047E-03
   7    46  4.9680E-01  0.0000E+00  7.2599E-03  5.8519E-03  4.1480E+01 -3.3435E+01  1.4613E-02  1.1779E-02  1.8034E-03
   8    53  4.7959E-01  0.0000E+00  6.3833E-03  2.6244E-03  6.4269E+01 -2.6423E+01  1.3310E-02  5.4721E-03  1.5307E-03







                        ----- CURRENTS AND LOCATION -----
                            DISTANCES IN WAVELENGTHS 

   SEG  TAG    COORDINATES OF SEGM CENTER     SEGM    ------------- CURRENT (AMPS) -------------
   No:  No:       X         Y         Z      LENGTH     REAL      IMAGINARY    MAGN        PHASE
     1    1    0.0000    0.0000    0.0333   0.06655  2.2839E-03  5.3559E-04  2.3458E-03   13.198 
     2    1    0.0000    0.0000    0.0998   0.06655  5.4070E-03  1.4497E-03  5.5980E-03   15.009 
     3    1    0.0000    0.0000    0.1664   0.06655  7.3587E-03  2.3242E-03  7.7170E-03   17.529 
     4    1    0.0000    0.0000    0.2329   0.06655  8.0378E-03  2.9903E-03  8.5761E-03   20.407 
     5    1    0.0000    0.0000    0.2995   0.06655  7.3587E-03  2.3242E-03  7.7170E-03   17.529 
     6    1    0.0000    0.0000    0.3660   0.06655  5.4070E-03  1.4497E-03  5.5980E-03   15.009 
     7    1    0.0000    0.0000    0.4326   0.06655  2.2839E-03  5.3559E-04  2.3458E-03   13.198 
     8    2    0.5003    0.0000    0.0333   0.06655  2.1631E-03  1.5310E-03  2.6501E-03   35.290 
     9    2    0.5003    0.0000    0.0998   0.06655  5.1158E-03  3.7749E-03  6.3578E-03   36.423 
    10    2    0.5003    0.0000    0.1664   0.06655  6.9581E-03  5.4336E-03  8.8283E-03   37.987 
    11    2    0.5003    0.0000    0.2329   0.06655  7.5987E-03  6.3193E-03  9.8830E-03   39.748 
    12    2    0.5003    0.0000    0.2995   0.06655  6.9581E-03  5.4336E-03  8.8283E-03   37.987 
    13    2    0.5003    0.0000    0.3660   0.06655  5.1158E-03  3.7749E-03  6.3578E-03   36.423 
    14    2    0.5003    0.0000    0.4326   0.06655  2.1631E-03  1.5310E-03  2.6501E-03   35.290 
    15    3    1.0007    0.0000    0.0333   0.06655  2.7531E-03  1.4819E-03  3.1266E-03   28.291 
    16    3    1.0007    0.0000    0.0998   0.06655  6.5124E-03  3.7261E-03  7.5029E-03   29.776 
    17    3    1.0007    0.0000    0.1664   0.06655  8.8584E-03  5.4967E-03  1.0425E-02   31.820 
    18    3    1.0007    0.0000    0.2329   0.06655  9.6744E-03  6.5546E-03  1.1686E-02   34.118 
    19    3    1.0007    0.0000    0.2995   0.06655  8.8584E-03  5.4967E-03  1.0425E-02   31.820 
    20    3    1.0007    0.0000    0.3660   0.06655  6.5124E-03  3.7261E-03  7.5029E-03   29.776 
    21    3    1.0007    0.0000    0.4326   0.06655  2.7531E-03  1.4819E-03  3.1266E-03   28.291 
    22    4    1.5010    0.0000    0.0333   0.06655  3.4847E-03  1.8359E-03  3.9387E-03   27.783 
    23    4    1.5010    0.0000    0.0998   0.06655  8.2451E-03  4.6083E-03  9.4455E-03   29.201 
    24    4    1.5010    0.0000    0.1664   0.06655  1.1217E-02  6.7838E-03  1.3109E-02   31.164 
    25    4    1.5010    0.0000    0.2329   0.06655  1.2251E-02  8.0724E-03  1.4672E-02   33.381 
    26    4    1.5010    0.0000    0.2995   0.06655  1.1217E-02  6.7838E-03  1.3109E-02   31.164 
    27    4    1.5010    0.0000    0.3660   0.06655  8.2451E-03  4.6083E-03  9.4455E-03   29.201 
    28    4    1.5010    0.0000    0.4326   0.06655  3.4847E-03  1.8359E-03  3.9387E-03   27.783 
    29    5    2.0014    0.0000    0.0333   0.06655  3.3669E-03  1.8700E-03  3.8514E-03   29.048 
    30    5    2.0014    0.0000    0.0998   0.06655  7.9655E-03  4.6787E-03  9.2379E-03   30.429 
    31    5    2.0014    0.0000    0.1664   0.06655  1.0836E-02  6.8601E-03  1.2825E-02   32.337 
    32    5    2.0014    0.0000    0.2329   0.06655  1.1834E-02  8.1307E-03  1.4358E-02   34.491 
    33    5    2.0014    0.0000    0.2995   0.06655  1.0836E-02  6.8601E-03  1.2825E-02   32.337 
    34    5    2.0014    0.0000    0.3660   0.06655  7.9655E-03  4.6787E-03  9.2379E-03   30.429 
    35    5    2.0014    0.0000    0.4326   0.06655  3.3669E-03  1.8700E-03  3.8514E-03   29.048 
    36    6    2.5017    0.0000    0.0333   0.06655  2.8536E-03  1.4718E-03  3.2107E-03   27.283 
    37    6    2.5017    0.0000    0.0998   0.06655  6.7510E-03  3.7091E-03  7.7028E-03   28.785 
    38    6    2.5017    0.0000    0.1664   0.06655  9.1839E-03  5.4871E-03  1.0698E-02   30.857 
    39    6    2.5017    0.0000    0.2329   0.06655  1.0030E-02  6.5612E-03  1.1986E-02   33.190 
    40    6    2.5017    0.0000    0.2995   0.06655  9.1839E-03  5.4871E-03  1.0698E-02   30.857 
    41    6    2.5017    0.0000    0.3660   0.06655  6.7510E-03  3.7091E-03  7.7028E-03   28.785 
    42    6    2.5017    0.0000    0.4326   0.06655  2.8536E-03  1.4718E-03  3.2107E-03   27.283 
    43    7    3.0020    0.0000    0.0333   0.06655  2.0665E-03  1.4069E-03  2.5000E-03   34.248 
    44    7    3.0020    0.0000    0.0998   0.06655  4.8876E-03  3.4764E-03  5.9979E-03   35.423 
    45    7    3.0020    0.0000    0.1664   0.06655  6.6478E-03  5.0175E-03  8.3288E-03   37.044 
    46    7    3.0020    0.0000    0.2329   0.06655  7.2599E-03  5.8519E-03  9.3248E-03   38.871 
    47    7    3.0020    0.0000    0.2995   0.06655  6.6478E-03  5.0175E-03  8.3288E-03   37.044 
    48    7    3.0020    0.0000    0.3660   0.06655  4.8876E-03  3.4764E-03  5.9979E-03   35.423 
    49    7    3.0020    0.0000    0.4326   0.06655  2.0665E-03  1.4069E-03  2.5000E-03   34.248 
    50    8    3.5024    0.0000    0.0333   0.06655  1.8142E-03  4.9576E-04  1.8807E-03   15.284 
    51    8    3.5024    0.0000    0.0998   0.06655  4.2945E-03  1.3182E-03  4.4922E-03   17.064 
    52    8    3.5024    0.0000    0.1664   0.06655  5.8441E-03  2.0735E-03  6.2010E-03   19.535 
    53    8    3.5024    0.0000    0.2329   0.06655  6.3833E-03  2.6244E-03  6.9017E-03   22.349 
    54    8    3.5024    0.0000    0.2995   0.06655  5.8441E-03  2.0735E-03  6.2010E-03   19.535 
    55    8    3.5024    0.0000    0.3660   0.06655  4.2945E-03  1.3182E-03  4.4922E-03   17.064 
    56    8    3.5024    0.0000    0.4326   0.06655  1.8142E-03  4.9576E-04  1.8807E-03   15.284 






                               ---------- POWER BUDGET ---------
                               INPUT POWER   = 2.5539E-002 Watts
                               RADIATED POWER= 2.5539E-002 Watts
                               STRUCTURE LOSS= 0.0000E+000 Watts
                               NETWORK LOSS  = 0.0000E+000 Watts
                               EFFICIENCY    =  100.00 Percent


                         ----- RADIATION PATTERNS -----
 ---- ANGLES -----     ----- POWER GAINS -----       ---- POLARIZATION ----   ---- E(THETA) ----    ----- E(PHI) ------
  THETA      PHI       VERTC   HORIZ   TOTAL       AXIAL      TILT  SENSE   MAGNITUDE    PHASE    MAGNITUDE     PHASE
 DEGREES   DEGREES        DB       DB       DB       RATIO   DEGREES            VOLTS/M   DEGREES     VOLTS/M   DEGREES
   90.00      0.00    -31.43  -999.99   -31.43      0.0000      0.00 LINEAR  3.3174E-02     73.95  0.0000E+00      0.00
   90.00      1.00    -31.49  -999.99   -31.49      0.0000      0.00 LINEAR  3.2981E-02     75.33  0.0000E+00      0.00
   90.00      2.00    -31.60  -999.99   -31.60      0.0000      0.00 LINEAR  3.2535E-02     79.54  0.0000E+00      0.00
   90.00      3.00    -31.68  -999.99   -31.68      0.0000      0.00 LINEAR  3.2247E-02     86.74  0.0000E+00      0.00
   90.00      4.00    -31.53  -999.99   -31.53      0.0000      0.00 LINEAR  3.2811E-02     96.76  0.0000E+00      0.00
   90.00      5.00    -30.95  -999.99   -30.95      0.0000      0.00 LINEAR  3.5090E-02    108.55  0.0000E+00      0.00
   90.00      6.00    -29.85  -999.99   -29.85      0.0000      0.00 LINEAR  3.9803E-02    120.24  0.0000E+00      0.00
   90.00      7.00    -28.36  -999.99   -28.36      0.0000      0.00 LINEAR  4.7248E-02    130.16  0.0000E+00      0.00
   90.00      8.00    -26.68  -999.99   -26.68      0.0000      0.00 LINEAR  5.7343E-02    137.65  0.0000E+00      0.00
   90.00      9.00    -24.97  -999.99   -24.97      0.0000      0.00 LINEAR  6.9848E-02    142.86  0.0000E+00      0.00
   90.00     10.00    -23.31  -999.99   -23.31      0.0000      0.00 LINEAR  8.4513E-02    146.24  0.0000E+00      0.00
   90.00     11.00    -21.75  -999.99   -21.75      0.0000      0.00 LINEAR  1.0112E-01    148.20  0.0000E+00      0.00
